(1718000000.000000) vcan0 181#1910000000000000
(1718000000.000000) vcan0 60D#0200000000000000
(1718000000.000000) vcan0 374#000000
(1718000000.020000) vcan0 181#1910000000000000
(1718000000.040000) vcan0 181#1910000000000000
(1718000000.060000) vcan0 181#1910000000000000
(1718000000.080000) vcan0 181#1910000000000000
(1718000000.100000) vcan0 181#1910000000000000
(1718000000.100000) vcan0 60D#0200000000000000
(1718000000.120000) vcan0 181#1910000000000000
(1718000000.140000) vcan0 181#1910000000000000
(1718000000.160000) vcan0 181#1910000000000000
(1718000000.180000) vcan0 181#1910000000000000
(1718000000.200000) vcan0 181#1910000000000000
(1718000000.200000) vcan0 60D#0200000000000000
(1718000000.200000) vcan0 374#000000
(1718000000.220000) vcan0 181#1910000000000000
(1718000000.240000) vcan0 181#1910000000000000
(1718000000.260000) vcan0 181#1910000000000000
(1718000000.280000) vcan0 181#1910000000000000
(1718000000.300000) vcan0 181#1910000000000000
(1718000000.300000) vcan0 60D#0200000000000000
(1718000000.320000) vcan0 181#1910000000000000
(1718000000.340000) vcan0 181#1910000000000000
(1718000000.360000) vcan0 181#1910000000000000
(1718000000.380000) vcan0 181#1910000000000000
(1718000000.400000) vcan0 181#1910000000000000
(1718000000.400000) vcan0 60D#0200000000000000
(1718000000.400000) vcan0 374#000000
(1718000000.420000) vcan0 181#1910000000000000
(1718000000.440000) vcan0 181#1910000000000000
(1718000000.460000) vcan0 181#1910000000000000
(1718000000.480000) vcan0 181#1910000000000000
(1718000000.500000) vcan0 181#1910000000000000
(1718000000.500000) vcan0 60D#0200000000000000
(1718000000.520000) vcan0 181#1910000000000000
(1718000000.540000) vcan0 181#1910000000000000
(1718000000.560000) vcan0 181#1910000000000000
(1718000000.580000) vcan0 181#1910000000000000
(1718000000.600000) vcan0 181#1910000000000000
(1718000000.600000) vcan0 60D#0200000000000000
(1718000000.600000) vcan0 374#000000
(1718000000.620000) vcan0 181#1910000000000000
(1718000000.640000) vcan0 181#1910000000000000
(1718000000.660000) vcan0 181#1910000000000000
(1718000000.680000) vcan0 181#1910000000000000
(1718000000.700000) vcan0 181#1910000000000000
(1718000000.700000) vcan0 60D#0200000000000000
(1718000000.720000) vcan0 181#1910000000000000
(1718000000.740000) vcan0 181#1910000000000000
(1718000000.760000) vcan0 181#1910000000000000
(1718000000.780000) vcan0 181#1910000000000000
(1718000000.800000) vcan0 181#1910000000000000
(1718000000.800000) vcan0 60D#0200000000000000
(1718000000.800000) vcan0 374#000000
(1718000000.820000) vcan0 181#1910000000000000
(1718000000.840000) vcan0 181#1910000000000000
(1718000000.860000) vcan0 181#1910000000000000
(1718000000.880000) vcan0 181#1910000000000000
(1718000000.900000) vcan0 181#1910000000000000
(1718000000.900000) vcan0 60D#0200000000000000
(1718000000.920000) vcan0 181#1910000000000000
(1718000000.940000) vcan0 181#1910000000000000
(1718000000.960000) vcan0 181#1910000000000000
(1718000000.980000) vcan0 181#1910000000000000
(1718000001.000000) vcan0 181#1910000000000000
(1718000001.000000) vcan0 60D#0200000000000000
(1718000001.000000) vcan0 374#000000
(1718000001.020000) vcan0 181#1910000000000000
(1718000001.040000) vcan0 181#1910000000000000
(1718000001.060000) vcan0 181#1910000000000000
(1718000001.080000) vcan0 181#1910000000000000
(1718000001.100000) vcan0 181#1910000000000000
(1718000001.100000) vcan0 60D#0200000000000000
(1718000001.120000) vcan0 181#1910000000000000
(1718000001.140000) vcan0 181#1910000000000000
(1718000001.160000) vcan0 181#1910000000000000
(1718000001.180000) vcan0 181#1910000000000000
(1718000001.200000) vcan0 181#1910000000000000
(1718000001.200000) vcan0 60D#0200000000000000
(1718000001.200000) vcan0 374#000000
(1718000001.220000) vcan0 181#1910000000000000
(1718000001.240000) vcan0 181#1910000000000000
(1718000001.260000) vcan0 181#1910000000000000
(1718000001.280000) vcan0 181#1910000000000000
(1718000001.300000) vcan0 181#1910000000000000
(1718000001.300000) vcan0 60D#0200000000000000
(1718000001.320000) vcan0 181#1910000000000000
(1718000001.340000) vcan0 181#1910000000000000
(1718000001.360000) vcan0 181#1910000000000000
(1718000001.380000) vcan0 181#1910000000000000
(1718000001.400000) vcan0 181#1910000000000000
(1718000001.400000) vcan0 60D#0200000000000000
(1718000001.400000) vcan0 374#000000
(1718000001.420000) vcan0 181#1910000000000000
(1718000001.440000) vcan0 181#1910000000000000
(1718000001.460000) vcan0 181#1910000000000000
(1718000001.480000) vcan0 181#1910000000000000
(1718000001.500000) vcan0 181#1910000000000000
(1718000001.500000) vcan0 60D#0200000000000000
(1718000001.520000) vcan0 181#1910000000000000
(1718000001.540000) vcan0 181#1910000000000000
(1718000001.560000) vcan0 181#1910000000000000
(1718000001.580000) vcan0 181#1910000000000000
(1718000001.600000) vcan0 181#1910000000000000
(1718000001.600000) vcan0 60D#0200000000000000
(1718000001.600000) vcan0 374#000000
(1718000001.620000) vcan0 181#1910000000000000
(1718000001.640000) vcan0 181#1910000000000000
(1718000001.660000) vcan0 181#1910000000000000
(1718000001.680000) vcan0 181#1910000000000000
(1718000001.700000) vcan0 181#1910000000000000
(1718000001.700000) vcan0 60D#0200000000000000
(1718000001.720000) vcan0 181#1910000000000000
(1718000001.740000) vcan0 181#1910000000000000
(1718000001.760000) vcan0 181#1910000000000000
(1718000001.780000) vcan0 181#1910000000000000
(1718000001.800000) vcan0 181#1910000000000000
(1718000001.800000) vcan0 60D#0200000000000000
(1718000001.800000) vcan0 374#000000
(1718000001.820000) vcan0 181#1910000000000000
(1718000001.840000) vcan0 181#1910000000000000
(1718000001.860000) vcan0 181#1910000000000000
(1718000001.880000) vcan0 181#1910000000000000
(1718000001.900000) vcan0 181#1910000000000000
(1718000001.900000) vcan0 60D#0200000000000000
(1718000001.920000) vcan0 181#1910000000000000
(1718000001.940000) vcan0 181#1910000000000000
(1718000001.960000) vcan0 181#1910000000000000
(1718000001.980000) vcan0 181#1910000000000000
(1718000002.000000) vcan0 181#1910000000000000
(1718000002.000000) vcan0 60D#0200000000000000
(1718000002.000000) vcan0 374#000000
(1718000002.020000) vcan0 181#1910000000000000
(1718000002.040000) vcan0 181#1910000000000000
(1718000002.060000) vcan0 181#1910000000000000
(1718000002.080000) vcan0 181#1910000000000000
(1718000002.100000) vcan0 181#1910000000000000
(1718000002.100000) vcan0 60D#0200000000000000
(1718000002.120000) vcan0 181#1910000000000000
(1718000002.140000) vcan0 181#1910000000000000
(1718000002.160000) vcan0 181#1910000000000000
(1718000002.180000) vcan0 181#1910000000000000
(1718000002.200000) vcan0 181#1910000000000000
(1718000002.200000) vcan0 60D#0200000000000000
(1718000002.200000) vcan0 374#000000
(1718000002.220000) vcan0 181#1910000000000000
(1718000002.240000) vcan0 181#1910000000000000
(1718000002.260000) vcan0 181#1910000000000000
(1718000002.280000) vcan0 181#1910000000000000
(1718000002.300000) vcan0 181#1910000000000000
(1718000002.300000) vcan0 60D#0200000000000000
(1718000002.320000) vcan0 181#1910000000000000
(1718000002.340000) vcan0 181#1910000000000000
(1718000002.360000) vcan0 181#1910000000000000
(1718000002.380000) vcan0 181#1910000000000000
(1718000002.400000) vcan0 181#1910000000000000
(1718000002.400000) vcan0 60D#0200000000000000
(1718000002.400000) vcan0 374#000000
(1718000002.420000) vcan0 181#1910000000000000
(1718000002.440000) vcan0 181#1910000000000000
(1718000002.460000) vcan0 181#1910000000000000
(1718000002.480000) vcan0 181#1910000000000000
(1718000002.500000) vcan0 181#1910000000000000
(1718000002.500000) vcan0 60D#0200000000000000
(1718000002.520000) vcan0 181#1910000000000000
(1718000002.540000) vcan0 181#1910000000000000
(1718000002.560000) vcan0 181#1910000000000000
(1718000002.580000) vcan0 181#1910000000000000
(1718000002.600000) vcan0 181#1910000000000000
(1718000002.600000) vcan0 60D#0200000000000000
(1718000002.600000) vcan0 374#000000
(1718000002.620000) vcan0 181#1910000000000000
(1718000002.640000) vcan0 181#1910000000000000
(1718000002.660000) vcan0 181#1910000000000000
(1718000002.680000) vcan0 181#1910000000000000
(1718000002.700000) vcan0 181#1910000000000000
(1718000002.700000) vcan0 60D#0200000000000000
(1718000002.720000) vcan0 181#1910000000000000
(1718000002.740000) vcan0 181#1910000000000000
(1718000002.760000) vcan0 181#1910000000000000
(1718000002.780000) vcan0 181#1910000000000000
(1718000002.800000) vcan0 181#1910000000000000
(1718000002.800000) vcan0 60D#0200000000000000
(1718000002.800000) vcan0 374#000000
(1718000002.820000) vcan0 181#1910000000000000
(1718000002.840000) vcan0 181#1910000000000000
(1718000002.860000) vcan0 181#1910000000000000
(1718000002.880000) vcan0 181#1910000000000000
(1718000002.900000) vcan0 181#1910000000000000
(1718000002.900000) vcan0 60D#0200000000000000
(1718000002.920000) vcan0 181#1910000000000000
(1718000002.940000) vcan0 181#1910000000000000
(1718000002.960000) vcan0 181#1910000000000000
(1718000002.980000) vcan0 181#1910000000000000
(1718000003.000000) vcan0 181#1910000000000000
(1718000003.000000) vcan0 60D#0200000000000000
(1718000003.000000) vcan0 374#000000
(1718000003.020000) vcan0 181#1910000000000000
(1718000003.040000) vcan0 181#1910000000000000
(1718000003.060000) vcan0 181#1910000000000000
(1718000003.080000) vcan0 181#1910000000000000
(1718000003.100000) vcan0 181#1910000000000000
(1718000003.100000) vcan0 60D#0200000000000000
(1718000003.120000) vcan0 181#1910000000000000
(1718000003.140000) vcan0 181#1910000000000000
(1718000003.160000) vcan0 181#1910000000000000
(1718000003.180000) vcan0 181#1910000000000000
(1718000003.200000) vcan0 181#1910000000000000
(1718000003.200000) vcan0 60D#0200000000000000
(1718000003.200000) vcan0 374#000000
(1718000003.220000) vcan0 181#1910000000000000
(1718000003.240000) vcan0 181#1910000000000000
(1718000003.260000) vcan0 181#1910000000000000
(1718000003.280000) vcan0 181#1910000000000000
(1718000003.300000) vcan0 181#1910000000000000
(1718000003.300000) vcan0 60D#0200000000000000
(1718000003.320000) vcan0 181#1910000000000000
(1718000003.340000) vcan0 181#1910000000000000
(1718000003.360000) vcan0 181#1910000000000000
(1718000003.380000) vcan0 181#1910000000000000
(1718000003.400000) vcan0 181#1910000000000000
(1718000003.400000) vcan0 60D#0200000000000000
(1718000003.400000) vcan0 374#000000
(1718000003.420000) vcan0 181#1910000000000000
(1718000003.440000) vcan0 181#1910000000000000
(1718000003.460000) vcan0 181#1910000000000000
(1718000003.480000) vcan0 181#1910000000000000
(1718000003.500000) vcan0 181#1910000000000000
(1718000003.500000) vcan0 60D#0200000000000000
(1718000003.520000) vcan0 181#1910000000000000
(1718000003.540000) vcan0 181#1910000000000000
(1718000003.560000) vcan0 181#1910000000000000
(1718000003.580000) vcan0 181#1910000000000000
(1718000003.600000) vcan0 181#1910000000000000
(1718000003.600000) vcan0 60D#0200000000000000
(1718000003.600000) vcan0 374#000000
(1718000003.620000) vcan0 181#1910000000000000
(1718000003.640000) vcan0 181#1910000000000000
(1718000003.660000) vcan0 181#1910000000000000
(1718000003.680000) vcan0 181#1910000000000000
(1718000003.700000) vcan0 181#1910000000000000
(1718000003.700000) vcan0 60D#0200000000000000
(1718000003.720000) vcan0 181#1910000000000000
(1718000003.740000) vcan0 181#1910000000000000
(1718000003.760000) vcan0 181#1910000000000000
(1718000003.780000) vcan0 181#1910000000000000
(1718000003.800000) vcan0 181#1910000000000000
(1718000003.800000) vcan0 60D#0200000000000000
(1718000003.800000) vcan0 374#000000
(1718000003.820000) vcan0 181#1910000000000000
(1718000003.840000) vcan0 181#1910000000000000
(1718000003.860000) vcan0 181#1910000000000000
(1718000003.880000) vcan0 181#1910000000000000
(1718000003.900000) vcan0 181#1910000000000000
(1718000003.900000) vcan0 60D#0200000000000000
(1718000003.920000) vcan0 181#1910000000000000
(1718000003.940000) vcan0 181#1910000000000000
(1718000003.960000) vcan0 181#1910000000000000
(1718000003.980000) vcan0 181#1910000000000000
(1718000004.000000) vcan0 181#1910000000000000
(1718000004.000000) vcan0 60D#0200000000000000
(1718000004.000000) vcan0 374#000000
(1718000004.020000) vcan0 181#1910000000000000
(1718000004.040000) vcan0 181#1910000000000000
(1718000004.060000) vcan0 181#1910000000000000
(1718000004.080000) vcan0 181#1910000000000000
(1718000004.100000) vcan0 181#1910000000000000
(1718000004.100000) vcan0 60D#0200000000000000
(1718000004.120000) vcan0 181#1910000000000000
(1718000004.140000) vcan0 181#1910000000000000
(1718000004.160000) vcan0 181#1910000000000000
(1718000004.180000) vcan0 181#1910000000000000
(1718000004.200000) vcan0 181#1910000000000000
(1718000004.200000) vcan0 60D#0200000000000000
(1718000004.200000) vcan0 374#000000
(1718000004.220000) vcan0 181#1910000000000000
(1718000004.240000) vcan0 181#1910000000000000
(1718000004.260000) vcan0 181#1910000000000000
(1718000004.280000) vcan0 181#1910000000000000
(1718000004.300000) vcan0 181#1910000000000000
(1718000004.300000) vcan0 60D#0200000000000000
(1718000004.320000) vcan0 181#1910000000000000
(1718000004.340000) vcan0 181#1910000000000000
(1718000004.360000) vcan0 181#1910000000000000
(1718000004.380000) vcan0 181#1910000000000000
(1718000004.400000) vcan0 181#1910000000000000
(1718000004.400000) vcan0 60D#0200000000000000
(1718000004.400000) vcan0 374#000000
(1718000004.420000) vcan0 181#1910000000000000
(1718000004.440000) vcan0 181#1910000000000000
(1718000004.460000) vcan0 181#1910000000000000
(1718000004.480000) vcan0 181#1910000000000000
(1718000004.500000) vcan0 181#1910000000000000
(1718000004.500000) vcan0 60D#0200000000000000
(1718000004.520000) vcan0 181#1910000000000000
(1718000004.540000) vcan0 181#1910000000000000
(1718000004.560000) vcan0 181#1910000000000000
(1718000004.580000) vcan0 181#1910000000000000
(1718000004.600000) vcan0 181#1910000000000000
(1718000004.600000) vcan0 60D#0200000000000000
(1718000004.600000) vcan0 374#000000
(1718000004.620000) vcan0 181#1910000000000000
(1718000004.640000) vcan0 181#1910000000000000
(1718000004.660000) vcan0 181#1910000000000000
(1718000004.680000) vcan0 181#1910000000000000
(1718000004.700000) vcan0 181#1910000000000000
(1718000004.700000) vcan0 60D#0200000000000000
(1718000004.720000) vcan0 181#1910000000000000
(1718000004.740000) vcan0 181#1910000000000000
(1718000004.760000) vcan0 181#1910000000000000
(1718000004.780000) vcan0 181#1910000000000000
(1718000004.800000) vcan0 181#1910000000000000
(1718000004.800000) vcan0 60D#0200000000000000
(1718000004.800000) vcan0 374#000000
(1718000004.820000) vcan0 181#1910000000000000
(1718000004.840000) vcan0 181#1910000000000000
(1718000004.860000) vcan0 181#1910000000000000
(1718000004.880000) vcan0 181#1910000000000000
(1718000004.900000) vcan0 181#1910000000000000
(1718000004.900000) vcan0 60D#0200000000000000
(1718000004.920000) vcan0 181#1910000000000000
(1718000004.940000) vcan0 181#1910000000000000
(1718000004.960000) vcan0 181#1910000000000000
(1718000004.980000) vcan0 181#1910000000000000
(1718000005.000000) vcan0 181#1910000000000000
(1718000005.000000) vcan0 60D#0200000000000000
(1718000005.000000) vcan0 374#000000
(1718000005.020000) vcan0 181#1927000000000000
(1718000005.040000) vcan0 181#193E000000000000
(1718000005.060000) vcan0 181#1955000000000000
(1718000005.080000) vcan0 181#196C000000000000
(1718000005.100000) vcan0 181#1983000000000000
(1718000005.100000) vcan0 60D#0200000000000000
(1718000005.120000) vcan0 181#199A000000000000
(1718000005.140000) vcan0 181#19B1000000000000
(1718000005.160000) vcan0 181#19C8000000000000
(1718000005.180000) vcan0 181#19DF000000000000
(1718000005.200000) vcan0 181#19F6000000000000
(1718000005.200000) vcan0 60D#0200000000000000
(1718000005.200000) vcan0 374#000000
(1718000005.220000) vcan0 181#1A0D000000000000
(1718000005.240000) vcan0 181#1A24000000000000
(1718000005.260000) vcan0 181#1A3B000000000000
(1718000005.280000) vcan0 181#1A52000000000000
(1718000005.300000) vcan0 181#1A69000000000000
(1718000005.300000) vcan0 60D#0200000000000000
(1718000005.320000) vcan0 181#1A80000000000000
(1718000005.340000) vcan0 181#1A97000000000000
(1718000005.360000) vcan0 181#1AAE000000000000
(1718000005.380000) vcan0 181#1AC5000000000000
(1718000005.400000) vcan0 181#1ADC000000000000
(1718000005.400000) vcan0 60D#0200000000000000
(1718000005.400000) vcan0 374#000000
(1718000005.420000) vcan0 181#1AF3000000000000
(1718000005.440000) vcan0 181#1B0A000000000000
(1718000005.460000) vcan0 181#1B21000000000000
(1718000005.480000) vcan0 181#1B38000000000000
(1718000005.500000) vcan0 181#1B50000000000000
(1718000005.500000) vcan0 60D#0200000000000000
(1718000005.520000) vcan0 181#1B67000000000000
(1718000005.540000) vcan0 181#1B7E000000000001
(1718000005.560000) vcan0 181#1B95000000000001
(1718000005.580000) vcan0 181#1BAC000000000001
(1718000005.600000) vcan0 181#1BC3000000000001
(1718000005.600000) vcan0 60D#0200000000000000
(1718000005.600000) vcan0 374#000000
(1718000005.620000) vcan0 181#1BDA000000000001
(1718000005.640000) vcan0 181#1BF1000000000001
(1718000005.660000) vcan0 181#1C08000000000001
(1718000005.680000) vcan0 181#1C1F000000000001
(1718000005.700000) vcan0 181#1C36000000000001
(1718000005.700000) vcan0 60D#0200000000000000
(1718000005.720000) vcan0 181#1C4D000000000001
(1718000005.740000) vcan0 181#1C64000000000001
(1718000005.760000) vcan0 181#1C7B000000000001
(1718000005.780000) vcan0 181#1C92000000000001
(1718000005.800000) vcan0 181#1CA9000000000001
(1718000005.800000) vcan0 60D#0200000000000000
(1718000005.800000) vcan0 374#000000
(1718000005.820000) vcan0 181#1CC0000000000001
(1718000005.840000) vcan0 181#1CD7000000000001
(1718000005.860000) vcan0 181#1CEE000000000001
(1718000005.880000) vcan0 181#1D05000000000001
(1718000005.900000) vcan0 181#1D1C000000000001
(1718000005.900000) vcan0 60D#0200000000000000
(1718000005.920000) vcan0 181#1D33000000000001
(1718000005.940000) vcan0 181#1D4A000000000001
(1718000005.960000) vcan0 181#1D61000000000001
(1718000005.980000) vcan0 181#1D78000000000001
(1718000006.000000) vcan0 181#1D90000000000001
(1718000006.000000) vcan0 60D#0200000000000000
(1718000006.000000) vcan0 374#000000
(1718000006.020000) vcan0 181#1DA7000000000001
(1718000006.040000) vcan0 181#1DBE000000000001
(1718000006.060000) vcan0 181#1DD5000000000001
(1718000006.080000) vcan0 181#1DEC000000000001
(1718000006.100000) vcan0 181#1E03000000000002
(1718000006.100000) vcan0 60D#0200000000000000
(1718000006.120000) vcan0 181#1E1A000000000002
(1718000006.140000) vcan0 181#1E31000000000002
(1718000006.160000) vcan0 181#1E48000000000002
(1718000006.180000) vcan0 181#1E5F000000000002
(1718000006.200000) vcan0 181#1E76000000000002
(1718000006.200000) vcan0 60D#0200000000000000
(1718000006.200000) vcan0 374#000000
(1718000006.220000) vcan0 181#1E8D000000000002
(1718000006.240000) vcan0 181#1EA4000000000002
(1718000006.260000) vcan0 181#1EBB000000000002
(1718000006.280000) vcan0 181#1ED2000000000002
(1718000006.300000) vcan0 181#1EE9000000000002
(1718000006.300000) vcan0 60D#0200000000000000
(1718000006.320000) vcan0 181#1F00000000000002
(1718000006.340000) vcan0 181#1F17000000000002
(1718000006.360000) vcan0 181#1F2E000000000002
(1718000006.380000) vcan0 181#1F45000000000002
(1718000006.400000) vcan0 181#1F5C000000000002
(1718000006.400000) vcan0 60D#0200000000000000
(1718000006.400000) vcan0 374#000000
(1718000006.420000) vcan0 181#1F73000000000002
(1718000006.440000) vcan0 181#1F8A000000000002
(1718000006.460000) vcan0 181#1FA1000000000002
(1718000006.480000) vcan0 181#1FB8000000000002
(1718000006.500000) vcan0 181#1FD0000000000002
(1718000006.500000) vcan0 60D#0200000000000000
(1718000006.520000) vcan0 181#1FE7000000000002
(1718000006.540000) vcan0 181#1FFE000000000002
(1718000006.560000) vcan0 181#2015000000000002
(1718000006.580000) vcan0 181#202C000000000002
(1718000006.600000) vcan0 181#2043000000000002
(1718000006.600000) vcan0 60D#0200000000000000
(1718000006.600000) vcan0 374#000000
(1718000006.620000) vcan0 181#205A000000000002
(1718000006.640000) vcan0 181#2071000000000002
(1718000006.660000) vcan0 181#2088000000000003
(1718000006.680000) vcan0 181#209F000000000003
(1718000006.700000) vcan0 181#20B6000000000003
(1718000006.700000) vcan0 60D#0200000000000000
(1718000006.720000) vcan0 181#20CD000000000003
(1718000006.740000) vcan0 181#20E4000000000003
(1718000006.760000) vcan0 181#20FB000000000003
(1718000006.780000) vcan0 181#2112000000000003
(1718000006.800000) vcan0 181#2129000000000003
(1718000006.800000) vcan0 60D#0200000000000000
(1718000006.800000) vcan0 374#000000
(1718000006.820000) vcan0 181#2140000000000003
(1718000006.840000) vcan0 181#2157000000000003
(1718000006.860000) vcan0 181#216E000000000003
(1718000006.880000) vcan0 181#2185000000000003
(1718000006.900000) vcan0 181#219C000000000003
(1718000006.900000) vcan0 60D#0200000000000000
(1718000006.920000) vcan0 181#21B3000000000003
(1718000006.940000) vcan0 181#21CA000000000003
(1718000006.960000) vcan0 181#21E1000000000003
(1718000006.980000) vcan0 181#21F8000000000003
(1718000007.000000) vcan0 181#2210000000000003
(1718000007.000000) vcan0 60D#0200000000000000
(1718000007.000000) vcan0 374#000000
(1718000007.020000) vcan0 181#2227000000000003
(1718000007.040000) vcan0 181#223E000000000003
(1718000007.060000) vcan0 181#2255000000000003
(1718000007.080000) vcan0 181#226C000000000003
(1718000007.100000) vcan0 181#2283000000000003
(1718000007.100000) vcan0 60D#0200000000000000
(1718000007.120000) vcan0 181#229A000000000003
(1718000007.140000) vcan0 181#22B1000000000003
(1718000007.160000) vcan0 181#22C8000000000003
(1718000007.180000) vcan0 181#22DF000000000003
(1718000007.200000) vcan0 181#22F6000000000003
(1718000007.200000) vcan0 60D#0200000000000000
(1718000007.200000) vcan0 374#000000
(1718000007.220000) vcan0 181#230D000000000004
(1718000007.240000) vcan0 181#2324000000000004
(1718000007.260000) vcan0 181#233B000000000004
(1718000007.280000) vcan0 181#2352000000000004
(1718000007.300000) vcan0 181#2369000000000004
(1718000007.300000) vcan0 60D#0200000000000000
(1718000007.320000) vcan0 181#2380000000000004
(1718000007.340000) vcan0 181#2397000000000004
(1718000007.360000) vcan0 181#23AE000000000004
(1718000007.380000) vcan0 181#23C5000000000004
(1718000007.400000) vcan0 181#23DC000000000004
(1718000007.400000) vcan0 60D#0200000000000000
(1718000007.400000) vcan0 374#000000
(1718000007.420000) vcan0 181#23F3000000000004
(1718000007.440000) vcan0 181#240A000000000004
(1718000007.460000) vcan0 181#2421000000000004
(1718000007.480000) vcan0 181#2438000000000004
(1718000007.500000) vcan0 181#244F000000000004
(1718000007.500000) vcan0 60D#0200000000000000
(1718000007.520000) vcan0 181#2467000000000004
(1718000007.540000) vcan0 181#247E000000000004
(1718000007.560000) vcan0 181#2495000000000004
(1718000007.580000) vcan0 181#24AC000000000004
(1718000007.600000) vcan0 181#24C3000000000004
(1718000007.600000) vcan0 60D#0200000000000000
(1718000007.600000) vcan0 374#000000
(1718000007.620000) vcan0 181#24DA000000000004
(1718000007.640000) vcan0 181#24F1000000000004
(1718000007.660000) vcan0 181#2508000000000004
(1718000007.680000) vcan0 181#251F000000000004
(1718000007.700000) vcan0 181#2536000000000004
(1718000007.700000) vcan0 60D#0200000000000000
(1718000007.720000) vcan0 181#254D000000000004
(1718000007.740000) vcan0 181#2564000000000004
(1718000007.760000) vcan0 181#257B000000000005
(1718000007.780000) vcan0 181#2592000000000005
(1718000007.800000) vcan0 181#25A9000000000005
(1718000007.800000) vcan0 60D#0200000000000000
(1718000007.800000) vcan0 374#000000
(1718000007.820000) vcan0 181#25C0000000000005
(1718000007.840000) vcan0 181#25D7000000000005
(1718000007.860000) vcan0 181#25EE000000000005
(1718000007.880000) vcan0 181#2605000000000005
(1718000007.900000) vcan0 181#261C000000000005
(1718000007.900000) vcan0 60D#0200000000000000
(1718000007.920000) vcan0 181#2633000000000005
(1718000007.940000) vcan0 181#264A000000000005
(1718000007.960000) vcan0 181#2661000000000005
(1718000007.980000) vcan0 181#2678000000000005
(1718000008.000000) vcan0 181#268F000000000005
(1718000008.000000) vcan0 60D#0200000000000000
(1718000008.000000) vcan0 374#000000
(1718000008.020000) vcan0 181#26A7000000000005
(1718000008.040000) vcan0 181#26BE000000000005
(1718000008.060000) vcan0 181#26D5000000000005
(1718000008.080000) vcan0 181#26EC000000000005
(1718000008.100000) vcan0 181#2703000000000005
(1718000008.100000) vcan0 60D#0200000000000000
(1718000008.120000) vcan0 181#271A000000000005
(1718000008.140000) vcan0 181#2731000000000005
(1718000008.160000) vcan0 181#2748000000000005
(1718000008.180000) vcan0 181#275F000000000005
(1718000008.200000) vcan0 181#2776000000000005
(1718000008.200000) vcan0 60D#0200000000000000
(1718000008.200000) vcan0 374#000000
(1718000008.220000) vcan0 181#278D000000000005
(1718000008.240000) vcan0 181#27A4000000000005
(1718000008.260000) vcan0 181#27BB000000000005
(1718000008.280000) vcan0 181#27D2000000000005
(1718000008.300000) vcan0 181#27E9000000000005
(1718000008.300000) vcan0 60D#0200000000000000
(1718000008.320000) vcan0 181#2800000000000006
(1718000008.340000) vcan0 181#2817000000000006
(1718000008.360000) vcan0 181#282E000000000006
(1718000008.380000) vcan0 181#2845000000000006
(1718000008.400000) vcan0 181#285C000000000006
(1718000008.400000) vcan0 60D#0200000000000000
(1718000008.400000) vcan0 374#000000
(1718000008.420000) vcan0 181#2873000000000006
(1718000008.440000) vcan0 181#288A000000000006
(1718000008.460000) vcan0 181#28A1000000000006
(1718000008.480000) vcan0 181#28B8000000000006
(1718000008.500000) vcan0 181#28CF000000000006
(1718000008.500000) vcan0 60D#0200000000000000
(1718000008.520000) vcan0 181#28E7000000000006
(1718000008.540000) vcan0 181#28FE000000000006
(1718000008.560000) vcan0 181#2915000000000006
(1718000008.580000) vcan0 181#292C000000000006
(1718000008.600000) vcan0 181#2943000000000006
(1718000008.600000) vcan0 60D#0200000000000000
(1718000008.600000) vcan0 374#000000
(1718000008.620000) vcan0 181#295A000000000006
(1718000008.640000) vcan0 181#2971000000000006
(1718000008.660000) vcan0 181#2988000000000006
(1718000008.680000) vcan0 181#299F000000000006
(1718000008.700000) vcan0 181#29B6000000000006
(1718000008.700000) vcan0 60D#0200000000000000
(1718000008.720000) vcan0 181#29CD000000000006
(1718000008.740000) vcan0 181#29E4000000000006
(1718000008.760000) vcan0 181#29FB000000000006
(1718000008.780000) vcan0 181#2A12000000000006
(1718000008.800000) vcan0 181#2A29000000000006
(1718000008.800000) vcan0 60D#0200000000000000
(1718000008.800000) vcan0 374#000000
(1718000008.820000) vcan0 181#2A40000000000006
(1718000008.840000) vcan0 181#2A57000000000006
(1718000008.860000) vcan0 181#2A6E000000000006
(1718000008.880000) vcan0 181#2A85000000000007
(1718000008.900000) vcan0 181#2A9C000000000007
(1718000008.900000) vcan0 60D#0200000000000000
(1718000008.920000) vcan0 181#2AB3000000000007
(1718000008.940000) vcan0 181#2ACA000000000007
(1718000008.960000) vcan0 181#2AE1000000000007
(1718000008.980000) vcan0 181#2AF8000000000007
(1718000009.000000) vcan0 181#2B0F000000000007
(1718000009.000000) vcan0 60D#0200000000000000
(1718000009.000000) vcan0 374#000000
(1718000009.020000) vcan0 181#2B27000000000007
(1718000009.040000) vcan0 181#2B3E000000000007
(1718000009.060000) vcan0 181#2B55000000000007
(1718000009.080000) vcan0 181#2B6C000000000007
(1718000009.100000) vcan0 181#2B83000000000007
(1718000009.100000) vcan0 60D#0200000000000000
(1718000009.120000) vcan0 181#2B9A000000000007
(1718000009.140000) vcan0 181#2BB1000000000007
(1718000009.160000) vcan0 181#2BC8000000000007
(1718000009.180000) vcan0 181#2BDF000000000007
(1718000009.200000) vcan0 181#2BF6000000000007
(1718000009.200000) vcan0 60D#0200000000000000
(1718000009.200000) vcan0 374#000000
(1718000009.220000) vcan0 181#2C0D000000000007
(1718000009.240000) vcan0 181#2C24000000000007
(1718000009.260000) vcan0 181#2C3B000000000007
(1718000009.280000) vcan0 181#2C52000000000007
(1718000009.300000) vcan0 181#2C69000000000007
(1718000009.300000) vcan0 60D#0200000000000000
(1718000009.320000) vcan0 181#2C80000000000007
(1718000009.340000) vcan0 181#2C97000000000007
(1718000009.360000) vcan0 181#2CAE000000000007
(1718000009.380000) vcan0 181#2CC5000000000007
(1718000009.400000) vcan0 181#2CDC000000000007
(1718000009.400000) vcan0 60D#0200000000000000
(1718000009.400000) vcan0 374#000000
(1718000009.420000) vcan0 181#2CF3000000000007
(1718000009.440000) vcan0 181#2D0A000000000008
(1718000009.460000) vcan0 181#2D21000000000008
(1718000009.480000) vcan0 181#2D38000000000008
(1718000009.500000) vcan0 181#2D4F000000000008
(1718000009.500000) vcan0 60D#0200000000000000
(1718000009.520000) vcan0 181#2D67000000000008
(1718000009.540000) vcan0 181#2D7E000000000008
(1718000009.560000) vcan0 181#2D95000000000008
(1718000009.580000) vcan0 181#2DAC000000000008
(1718000009.600000) vcan0 181#2DC3000000000008
(1718000009.600000) vcan0 60D#0200000000000000
(1718000009.600000) vcan0 374#000000
(1718000009.620000) vcan0 181#2DDA000000000008
(1718000009.640000) vcan0 181#2DF1000000000008
(1718000009.660000) vcan0 181#2E08000000000008
(1718000009.680000) vcan0 181#2E1F000000000008
(1718000009.700000) vcan0 181#2E36000000000008
(1718000009.700000) vcan0 60D#0200000000000000
(1718000009.720000) vcan0 181#2E4D000000000008
(1718000009.740000) vcan0 181#2E64000000000008
(1718000009.760000) vcan0 181#2E7B000000000008
(1718000009.780000) vcan0 181#2E92000000000008
(1718000009.800000) vcan0 181#2EA9000000000008
(1718000009.800000) vcan0 60D#0200000000000000
(1718000009.800000) vcan0 374#000000
(1718000009.820000) vcan0 181#2EC0000000000008
(1718000009.840000) vcan0 181#2ED7000000000008
(1718000009.860000) vcan0 181#2EEE000000000008
(1718000009.880000) vcan0 181#2F05000000000008
(1718000009.900000) vcan0 181#2F1C000000000008
(1718000009.900000) vcan0 60D#0200000000000000
(1718000009.920000) vcan0 181#2F33000000000008
(1718000009.940000) vcan0 181#2F4A000000000008
(1718000009.960000) vcan0 181#2F61000000000008
(1718000009.980000) vcan0 181#2F78000000000008
(1718000010.000000) vcan0 181#2F8F000000000009
(1718000010.000000) vcan0 60D#0200000000000000
(1718000010.000000) vcan0 374#000000
(1718000010.020000) vcan0 181#2FA7000000000009
(1718000010.040000) vcan0 181#2FBE000000000009
(1718000010.060000) vcan0 181#2FD5000000000009
(1718000010.080000) vcan0 181#2FEC000000000009
(1718000010.100000) vcan0 181#3003000000000009
(1718000010.100000) vcan0 60D#0200000000000000
(1718000010.120000) vcan0 181#301A000000000009
(1718000010.140000) vcan0 181#3031000000000009
(1718000010.160000) vcan0 181#3048000000000009
(1718000010.180000) vcan0 181#305F000000000009
(1718000010.200000) vcan0 181#3076000000000009
(1718000010.200000) vcan0 60D#0200000000000000
(1718000010.200000) vcan0 374#000000
(1718000010.220000) vcan0 181#308D000000000009
(1718000010.240000) vcan0 181#30A4000000000009
(1718000010.260000) vcan0 181#30BB000000000009
(1718000010.280000) vcan0 181#30D2000000000009
(1718000010.300000) vcan0 181#30E9000000000009
(1718000010.300000) vcan0 60D#0200000000000000
(1718000010.320000) vcan0 181#3100000000000009
(1718000010.340000) vcan0 181#3117000000000009
(1718000010.360000) vcan0 181#312E000000000009
(1718000010.380000) vcan0 181#3145000000000009
(1718000010.400000) vcan0 181#315C000000000009
(1718000010.400000) vcan0 60D#0200000000000000
(1718000010.400000) vcan0 374#000000
(1718000010.420000) vcan0 181#3173000000000009
(1718000010.440000) vcan0 181#318A000000000009
(1718000010.460000) vcan0 181#31A1000000000009
(1718000010.480000) vcan0 181#31B8000000000009
(1718000010.500000) vcan0 181#31CF000000000009
(1718000010.500000) vcan0 60D#0200000000000000
(1718000010.520000) vcan0 181#31E7000000000009
(1718000010.540000) vcan0 181#31FE00000000000A
(1718000010.560000) vcan0 181#321500000000000A
(1718000010.580000) vcan0 181#322C00000000000A
(1718000010.600000) vcan0 181#324300000000000A
(1718000010.600000) vcan0 60D#0200000000000000
(1718000010.600000) vcan0 374#000000
(1718000010.620000) vcan0 181#325A00000000000A
(1718000010.640000) vcan0 181#327100000000000A
(1718000010.660000) vcan0 181#328800000000000A
(1718000010.680000) vcan0 181#329F00000000000A
(1718000010.700000) vcan0 181#32B600000000000A
(1718000010.700000) vcan0 60D#0200000000000000
(1718000010.720000) vcan0 181#32CD00000000000A
(1718000010.740000) vcan0 181#32E400000000000A
(1718000010.760000) vcan0 181#32FB00000000000A
(1718000010.780000) vcan0 181#331200000000000A
(1718000010.800000) vcan0 181#332900000000000A
(1718000010.800000) vcan0 60D#0200000000000000
(1718000010.800000) vcan0 374#000000
(1718000010.820000) vcan0 181#334000000000000A
(1718000010.840000) vcan0 181#335700000000000A
(1718000010.860000) vcan0 181#336E00000000000A
(1718000010.880000) vcan0 181#338500000000000A
(1718000010.900000) vcan0 181#339C00000000000A
(1718000010.900000) vcan0 60D#0200000000000000
(1718000010.920000) vcan0 181#33B300000000000A
(1718000010.940000) vcan0 181#33CA00000000000A
(1718000010.960000) vcan0 181#33E100000000000A
(1718000010.980000) vcan0 181#33F800000000000A
(1718000011.000000) vcan0 181#340F00000000000A
(1718000011.000000) vcan0 60D#0200000000000000
(1718000011.000000) vcan0 374#000000
(1718000011.020000) vcan0 181#342700000000000A
(1718000011.040000) vcan0 181#343E00000000000A
(1718000011.060000) vcan0 181#345500000000000A
(1718000011.080000) vcan0 181#346C00000000000A
(1718000011.100000) vcan0 181#348300000000000B
(1718000011.100000) vcan0 60D#0200000000000000
(1718000011.120000) vcan0 181#349A00000000000B
(1718000011.140000) vcan0 181#34B100000000000B
(1718000011.160000) vcan0 181#34C800000000000B
(1718000011.180000) vcan0 181#34DF00000000000B
(1718000011.200000) vcan0 181#34F600000000000B
(1718000011.200000) vcan0 60D#0200000000000000
(1718000011.200000) vcan0 374#000000
(1718000011.220000) vcan0 181#350D00000000000B
(1718000011.240000) vcan0 181#352400000000000B
(1718000011.260000) vcan0 181#353B00000000000B
(1718000011.280000) vcan0 181#355200000000000B
(1718000011.300000) vcan0 181#356900000000000B
(1718000011.300000) vcan0 60D#0200000000000000
(1718000011.320000) vcan0 181#358000000000000B
(1718000011.340000) vcan0 181#359700000000000B
(1718000011.360000) vcan0 181#35AE00000000000B
(1718000011.380000) vcan0 181#35C500000000000B
(1718000011.400000) vcan0 181#35DC00000000000B
(1718000011.400000) vcan0 60D#0200000000000000
(1718000011.400000) vcan0 374#000000
(1718000011.420000) vcan0 181#35F300000000000B
(1718000011.440000) vcan0 181#360A00000000000B
(1718000011.460000) vcan0 181#362100000000000B
(1718000011.480000) vcan0 181#363800000000000B
(1718000011.500000) vcan0 181#364F00000000000B
(1718000011.500000) vcan0 60D#0200000000000000
(1718000011.520000) vcan0 181#366700000000000B
(1718000011.540000) vcan0 181#367E00000000000B
(1718000011.560000) vcan0 181#369500000000000B
(1718000011.580000) vcan0 181#36AC00000000000B
(1718000011.600000) vcan0 181#36C300000000000B
(1718000011.600000) vcan0 60D#0200000000000000
(1718000011.600000) vcan0 374#000000
(1718000011.620000) vcan0 181#36DA00000000000B
(1718000011.640000) vcan0 181#36F100000000000B
(1718000011.660000) vcan0 181#370800000000000C
(1718000011.680000) vcan0 181#371F00000000000C
(1718000011.700000) vcan0 181#373600000000000C
(1718000011.700000) vcan0 60D#0200000000000000
(1718000011.720000) vcan0 181#374D00000000000C
(1718000011.740000) vcan0 181#376400000000000C
(1718000011.760000) vcan0 181#377B00000000000C
(1718000011.780000) vcan0 181#379200000000000C
(1718000011.800000) vcan0 181#37A900000000000C
(1718000011.800000) vcan0 60D#0200000000000000
(1718000011.800000) vcan0 374#000000
(1718000011.820000) vcan0 181#37C000000000000C
(1718000011.840000) vcan0 181#37D700000000000C
(1718000011.860000) vcan0 181#37EE00000000000C
(1718000011.880000) vcan0 181#380500000000000C
(1718000011.900000) vcan0 181#381C00000000000C
(1718000011.900000) vcan0 60D#0200000000000000
(1718000011.920000) vcan0 181#383300000000000C
(1718000011.940000) vcan0 181#384A00000000000C
(1718000011.960000) vcan0 181#386100000000000C
(1718000011.980000) vcan0 181#387800000000000C
(1718000012.000000) vcan0 181#388F00000000000C
(1718000012.000000) vcan0 60D#0200000000000000
(1718000012.000000) vcan0 374#000000
(1718000012.020000) vcan0 181#38A700000000000C
(1718000012.040000) vcan0 181#38BE00000000000C
(1718000012.060000) vcan0 181#38D500000000000C
(1718000012.080000) vcan0 181#38EC00000000000C
(1718000012.100000) vcan0 181#390300000000000C
(1718000012.100000) vcan0 60D#0200000000000000
(1718000012.120000) vcan0 181#391A00000000000C
(1718000012.140000) vcan0 181#393100000000000C
(1718000012.160000) vcan0 181#394800000000000C
(1718000012.180000) vcan0 181#395F00000000000C
(1718000012.200000) vcan0 181#397600000000000C
(1718000012.200000) vcan0 60D#0200000000000000
(1718000012.200000) vcan0 374#000000
(1718000012.220000) vcan0 181#398D00000000000D
(1718000012.240000) vcan0 181#39A400000000000D
(1718000012.260000) vcan0 181#39BB00000000000D
(1718000012.280000) vcan0 181#39D200000000000D
(1718000012.300000) vcan0 181#39E900000000000D
(1718000012.300000) vcan0 60D#0200000000000000
(1718000012.320000) vcan0 181#3A0000000000000D
(1718000012.340000) vcan0 181#3A1700000000000D
(1718000012.360000) vcan0 181#3A2E00000000000D
(1718000012.380000) vcan0 181#3A4500000000000D
(1718000012.400000) vcan0 181#3A5C00000000000D
(1718000012.400000) vcan0 60D#0200000000000000
(1718000012.400000) vcan0 374#000000
(1718000012.420000) vcan0 181#3A7300000000000D
(1718000012.440000) vcan0 181#3A8A00000000000D
(1718000012.460000) vcan0 181#3AA100000000000D
(1718000012.480000) vcan0 181#3AB800000000000D
(1718000012.500000) vcan0 181#3ACF00000000000D
(1718000012.500000) vcan0 60D#0200000000000000
(1718000012.520000) vcan0 181#3AE700000000000D
(1718000012.540000) vcan0 181#3AFE00000000000D
(1718000012.560000) vcan0 181#3B1500000000000D
(1718000012.580000) vcan0 181#3B2C00000000000D
(1718000012.600000) vcan0 181#3B4300000000000D
(1718000012.600000) vcan0 60D#0200000000000000
(1718000012.600000) vcan0 374#000000
(1718000012.620000) vcan0 181#3B5A00000000000D
(1718000012.640000) vcan0 181#3B7100000000000D
(1718000012.660000) vcan0 181#3B8800000000000D
(1718000012.680000) vcan0 181#3B9F00000000000D
(1718000012.700000) vcan0 181#3BB600000000000D
(1718000012.700000) vcan0 60D#0200000000000000
(1718000012.720000) vcan0 181#3BCD00000000000D
(1718000012.740000) vcan0 181#3BE400000000000D
(1718000012.760000) vcan0 181#3BFB00000000000E
(1718000012.780000) vcan0 181#3C1200000000000E
(1718000012.800000) vcan0 181#3C2900000000000E
(1718000012.800000) vcan0 60D#0200000000000000
(1718000012.800000) vcan0 374#000000
(1718000012.820000) vcan0 181#3C4000000000000E
(1718000012.840000) vcan0 181#3C5700000000000E
(1718000012.860000) vcan0 181#3C6E00000000000E
(1718000012.880000) vcan0 181#3C8500000000000E
(1718000012.900000) vcan0 181#3C9C00000000000E
(1718000012.900000) vcan0 60D#0200000000000000
(1718000012.920000) vcan0 181#3CB300000000000E
(1718000012.940000) vcan0 181#3CCA00000000000E
(1718000012.960000) vcan0 181#3CE100000000000E
(1718000012.980000) vcan0 181#3CF800000000000E
(1718000013.000000) vcan0 181#3D0F00000000000E
(1718000013.000000) vcan0 60D#0200000000000000
(1718000013.000000) vcan0 374#000000
(1718000013.020000) vcan0 181#3D2700000000000E
(1718000013.040000) vcan0 181#3D3E00000000000E
(1718000013.060000) vcan0 181#3D5500000000000E
(1718000013.080000) vcan0 181#3D6C00000000000E
(1718000013.100000) vcan0 181#3D8300000000000E
(1718000013.100000) vcan0 60D#0200000000000000
(1718000013.120000) vcan0 181#3D9A00000000000E
(1718000013.140000) vcan0 181#3DB100000000000E
(1718000013.160000) vcan0 181#3DC800000000000E
(1718000013.180000) vcan0 181#3DDF00000000000E
(1718000013.200000) vcan0 181#3DF600000000000E
(1718000013.200000) vcan0 60D#0200000000000000
(1718000013.200000) vcan0 374#000000
(1718000013.220000) vcan0 181#3E0D00000000000E
(1718000013.240000) vcan0 181#3E2400000000000E
(1718000013.260000) vcan0 181#3E3B00000000000E
(1718000013.280000) vcan0 181#3E5200000000000E
(1718000013.300000) vcan0 181#3E6900000000000E
(1718000013.300000) vcan0 60D#0200000000000000
(1718000013.320000) vcan0 181#3E8000000000000F
(1718000013.340000) vcan0 181#3E9700000000000F
(1718000013.360000) vcan0 181#3EAE00000000000F
(1718000013.380000) vcan0 181#3EC500000000000F
(1718000013.400000) vcan0 181#3EDC00000000000F
(1718000013.400000) vcan0 60D#0200000000000000
(1718000013.400000) vcan0 374#000000
(1718000013.420000) vcan0 181#3EF300000000000F
(1718000013.440000) vcan0 181#3F0A00000000000F
(1718000013.460000) vcan0 181#3F2100000000000F
(1718000013.480000) vcan0 181#3F3800000000000F
(1718000013.500000) vcan0 181#3F4F00000000000F
(1718000013.500000) vcan0 60D#0200000000000000
(1718000013.520000) vcan0 181#3F6700000000000F
(1718000013.540000) vcan0 181#3F7E00000000000F
(1718000013.560000) vcan0 181#3F9500000000000F
(1718000013.580000) vcan0 181#3FAC00000000000F
(1718000013.600000) vcan0 181#3FC300000000000F
(1718000013.600000) vcan0 60D#0200000000000000
(1718000013.600000) vcan0 374#000000
(1718000013.620000) vcan0 181#3FDA00000000000F
(1718000013.640000) vcan0 181#3FF100000000000F
(1718000013.660000) vcan0 181#400800000000000F
(1718000013.680000) vcan0 181#401F00000000000F
(1718000013.700000) vcan0 181#403600000000000F
(1718000013.700000) vcan0 60D#0200000000000000
(1718000013.720000) vcan0 181#404D00000000000F
(1718000013.740000) vcan0 181#406400000000000F
(1718000013.760000) vcan0 181#407B00000000000F
(1718000013.780000) vcan0 181#409200000000000F
(1718000013.800000) vcan0 181#40A900000000000F
(1718000013.800000) vcan0 60D#0200000000000000
(1718000013.800000) vcan0 374#000000
(1718000013.820000) vcan0 181#40C000000000000F
(1718000013.840000) vcan0 181#40D700000000000F
(1718000013.860000) vcan0 181#40EE00000000000F
(1718000013.880000) vcan0 181#4105000000000010
(1718000013.900000) vcan0 181#411C000000000010
(1718000013.900000) vcan0 60D#0200000000000000
(1718000013.920000) vcan0 181#4133000000000010
(1718000013.940000) vcan0 181#414A000000000010
(1718000013.960000) vcan0 181#4161000000000010
(1718000013.980000) vcan0 181#4178000000000010
(1718000014.000000) vcan0 181#418F000000000010
(1718000014.000000) vcan0 60D#0200000000000000
(1718000014.000000) vcan0 374#000000
(1718000014.020000) vcan0 181#41A7000000000010
(1718000014.040000) vcan0 181#41BE000000000010
(1718000014.060000) vcan0 181#41D5000000000010
(1718000014.080000) vcan0 181#41EC000000000010
(1718000014.100000) vcan0 181#4203000000000010
(1718000014.100000) vcan0 60D#0200000000000000
(1718000014.120000) vcan0 181#421A000000000010
(1718000014.140000) vcan0 181#4231000000000010
(1718000014.160000) vcan0 181#4248000000000010
(1718000014.180000) vcan0 181#425F000000000010
(1718000014.200000) vcan0 181#4276000000000010
(1718000014.200000) vcan0 60D#0200000000000000
(1718000014.200000) vcan0 374#000000
(1718000014.220000) vcan0 181#428D000000000010
(1718000014.240000) vcan0 181#42A4000000000010
(1718000014.260000) vcan0 181#42BB000000000010
(1718000014.280000) vcan0 181#42D2000000000010
(1718000014.300000) vcan0 181#42E9000000000010
(1718000014.300000) vcan0 60D#0200000000000000
(1718000014.320000) vcan0 181#4300000000000010
(1718000014.340000) vcan0 181#4317000000000010
(1718000014.360000) vcan0 181#432E000000000010
(1718000014.380000) vcan0 181#4345000000000010
(1718000014.400000) vcan0 181#435C000000000010
(1718000014.400000) vcan0 60D#0200000000000000
(1718000014.400000) vcan0 374#000000
(1718000014.420000) vcan0 181#4373000000000010
(1718000014.440000) vcan0 181#438A000000000011
(1718000014.460000) vcan0 181#43A1000000000011
(1718000014.480000) vcan0 181#43B8000000000011
(1718000014.500000) vcan0 181#43CF000000000011
(1718000014.500000) vcan0 60D#0200000000000000
(1718000014.520000) vcan0 181#43E7000000000011
(1718000014.540000) vcan0 181#43FE000000000011
(1718000014.560000) vcan0 181#4415000000000011
(1718000014.580000) vcan0 181#442C000000000011
(1718000014.600000) vcan0 181#4443000000000011
(1718000014.600000) vcan0 60D#0200000000000000
(1718000014.600000) vcan0 374#000000
(1718000014.620000) vcan0 181#445A000000000011
(1718000014.640000) vcan0 181#4471000000000011
(1718000014.660000) vcan0 181#4488000000000011
(1718000014.680000) vcan0 181#449F000000000011
(1718000014.700000) vcan0 181#44B6000000000011
(1718000014.700000) vcan0 60D#0200000000000000
(1718000014.720000) vcan0 181#44CD000000000011
(1718000014.740000) vcan0 181#44E4000000000011
(1718000014.760000) vcan0 181#44FB000000000011
(1718000014.780000) vcan0 181#4512000000000011
(1718000014.800000) vcan0 181#4529000000000011
(1718000014.800000) vcan0 60D#0200000000000000
(1718000014.800000) vcan0 374#000000
(1718000014.820000) vcan0 181#4540000000000011
(1718000014.840000) vcan0 181#4557000000000011
(1718000014.860000) vcan0 181#456E000000000011
(1718000014.880000) vcan0 181#4585000000000011
(1718000014.900000) vcan0 181#459C000000000011
(1718000014.900000) vcan0 60D#0200000000000000
(1718000014.920000) vcan0 181#45B3000000000011
(1718000014.940000) vcan0 181#45CA000000000011
(1718000014.960000) vcan0 181#45E1000000000011
(1718000014.980000) vcan0 181#45F8000000000011
(1718000015.000000) vcan0 181#460F000000000012
(1718000015.000000) vcan0 60D#0200000000000000
(1718000015.000000) vcan0 374#000000
(1718000015.020000) vcan0 181#4627000000000012
(1718000015.040000) vcan0 181#463E000000000012
(1718000015.060000) vcan0 181#4655000000000012
(1718000015.080000) vcan0 181#466C000000000012
(1718000015.100000) vcan0 181#4683000000000012
(1718000015.100000) vcan0 60D#0200000000000000
(1718000015.120000) vcan0 181#469A000000000012
(1718000015.140000) vcan0 181#46B1000000000012
(1718000015.160000) vcan0 181#46C8000000000012
(1718000015.180000) vcan0 181#46DF000000000012
(1718000015.200000) vcan0 181#46F6000000000012
(1718000015.200000) vcan0 60D#0200000000000000
(1718000015.200000) vcan0 374#000000
(1718000015.220000) vcan0 181#470D000000000012
(1718000015.240000) vcan0 181#4724000000000012
(1718000015.260000) vcan0 181#473B000000000012
(1718000015.280000) vcan0 181#4752000000000012
(1718000015.300000) vcan0 181#4769000000000012
(1718000015.300000) vcan0 60D#0200000000000000
(1718000015.320000) vcan0 181#4780000000000012
(1718000015.340000) vcan0 181#4797000000000012
(1718000015.360000) vcan0 181#47AE000000000012
(1718000015.380000) vcan0 181#47C5000000000012
(1718000015.400000) vcan0 181#47DC000000000012
(1718000015.400000) vcan0 60D#0200000000000000
(1718000015.400000) vcan0 374#000000
(1718000015.420000) vcan0 181#47F3000000000012
(1718000015.440000) vcan0 181#480A000000000012
(1718000015.460000) vcan0 181#4821000000000012
(1718000015.480000) vcan0 181#4838000000000012
(1718000015.500000) vcan0 181#484F000000000012
(1718000015.500000) vcan0 60D#0200000000000000
(1718000015.520000) vcan0 181#4867000000000012
(1718000015.540000) vcan0 181#487E000000000013
(1718000015.560000) vcan0 181#4895000000000013
(1718000015.580000) vcan0 181#48AC000000000013
(1718000015.600000) vcan0 181#48C3000000000013
(1718000015.600000) vcan0 60D#0200000000000000
(1718000015.600000) vcan0 374#000000
(1718000015.620000) vcan0 181#48DA000000000013
(1718000015.640000) vcan0 181#48F1000000000013
(1718000015.660000) vcan0 181#4908000000000013
(1718000015.680000) vcan0 181#491F000000000013
(1718000015.700000) vcan0 181#4936000000000013
(1718000015.700000) vcan0 60D#0200000000000000
(1718000015.720000) vcan0 181#494D000000000013
(1718000015.740000) vcan0 181#4964000000000013
(1718000015.760000) vcan0 181#497B000000000013
(1718000015.780000) vcan0 181#4992000000000013
(1718000015.800000) vcan0 181#49A9000000000013
(1718000015.800000) vcan0 60D#0200000000000000
(1718000015.800000) vcan0 374#000000
(1718000015.820000) vcan0 181#49C0000000000013
(1718000015.840000) vcan0 181#49D7000000000013
(1718000015.860000) vcan0 181#49EE000000000013
(1718000015.880000) vcan0 181#4A05000000000013
(1718000015.900000) vcan0 181#4A1C000000000013
(1718000015.900000) vcan0 60D#0200000000000000
(1718000015.920000) vcan0 181#4A33000000000013
(1718000015.940000) vcan0 181#4A4A000000000013
(1718000015.960000) vcan0 181#4A61000000000013
(1718000015.980000) vcan0 181#4A78000000000013
(1718000016.000000) vcan0 181#4A90000000000013
(1718000016.000000) vcan0 60D#0200000000000000
(1718000016.000000) vcan0 374#000000
(1718000016.020000) vcan0 181#4AA7000000000013
(1718000016.040000) vcan0 181#4ABE000000000013
(1718000016.060000) vcan0 181#4AD5000000000013
(1718000016.080000) vcan0 181#4AEC000000000013
(1718000016.100000) vcan0 181#4B03000000000014
(1718000016.100000) vcan0 60D#0200000000000000
(1718000016.120000) vcan0 181#2587000000000014
(1718000016.140000) vcan0 181#2596000000000014
(1718000016.160000) vcan0 181#25A6000000000014
(1718000016.180000) vcan0 181#25B6000000000014
(1718000016.200000) vcan0 181#25C6000000000014
(1718000016.200000) vcan0 60D#0200000000000000
(1718000016.200000) vcan0 374#000000
(1718000016.220000) vcan0 181#25D6000000000014
(1718000016.240000) vcan0 181#25E6000000000014
(1718000016.260000) vcan0 181#25F5000000000014
(1718000016.280000) vcan0 181#2605000000000014
(1718000016.300000) vcan0 181#2615000000000014
(1718000016.300000) vcan0 60D#0200000000000000
(1718000016.320000) vcan0 181#2625000000000014
(1718000016.340000) vcan0 181#2635000000000014
(1718000016.360000) vcan0 181#2645000000000014
(1718000016.380000) vcan0 181#2654000000000014
(1718000016.400000) vcan0 181#2664000000000014
(1718000016.400000) vcan0 60D#0200000000000000
(1718000016.400000) vcan0 374#000000
(1718000016.420000) vcan0 181#2674000000000014
(1718000016.440000) vcan0 181#2684000000000014
(1718000016.460000) vcan0 181#2694000000000014
(1718000016.480000) vcan0 181#26A4000000000014
(1718000016.500000) vcan0 181#26B4000000000014
(1718000016.500000) vcan0 60D#0200000000000000
(1718000016.520000) vcan0 181#26C3000000000014
(1718000016.540000) vcan0 181#26D3000000000014
(1718000016.560000) vcan0 181#26E3000000000014
(1718000016.580000) vcan0 181#26F3000000000014
(1718000016.600000) vcan0 181#2703000000000014
(1718000016.600000) vcan0 60D#0200000000000000
(1718000016.600000) vcan0 374#000000
(1718000016.620000) vcan0 181#2713000000000014
(1718000016.640000) vcan0 181#2722000000000014
(1718000016.660000) vcan0 181#2732000000000015
(1718000016.680000) vcan0 181#2742000000000015
(1718000016.700000) vcan0 181#2752000000000015
(1718000016.700000) vcan0 60D#0200000000000000
(1718000016.720000) vcan0 181#2762000000000015
(1718000016.740000) vcan0 181#2772000000000015
(1718000016.760000) vcan0 181#2781000000000015
(1718000016.780000) vcan0 181#2791000000000015
(1718000016.800000) vcan0 181#27A1000000000015
(1718000016.800000) vcan0 60D#0200000000000000
(1718000016.800000) vcan0 374#000000
(1718000016.820000) vcan0 181#27B1000000000015
(1718000016.840000) vcan0 181#27C1000000000015
(1718000016.860000) vcan0 181#27D1000000000015
(1718000016.880000) vcan0 181#27E0000000000015
(1718000016.900000) vcan0 181#27F0000000000015
(1718000016.900000) vcan0 60D#0200000000000000
(1718000016.920000) vcan0 181#2800000000000015
(1718000016.940000) vcan0 181#2810000000000015
(1718000016.960000) vcan0 181#2820000000000015
(1718000016.980000) vcan0 181#2830000000000015
(1718000017.000000) vcan0 181#2840000000000015
(1718000017.000000) vcan0 60D#0200000000000000
(1718000017.000000) vcan0 374#000000
(1718000017.020000) vcan0 181#284F000000000015
(1718000017.040000) vcan0 181#285F000000000015
(1718000017.060000) vcan0 181#286F000000000015
(1718000017.080000) vcan0 181#287F000000000015
(1718000017.100000) vcan0 181#288F000000000015
(1718000017.100000) vcan0 60D#0200000000000000
(1718000017.120000) vcan0 181#289F000000000015
(1718000017.140000) vcan0 181#28AE000000000015
(1718000017.160000) vcan0 181#28BE000000000015
(1718000017.180000) vcan0 181#28CE000000000015
(1718000017.200000) vcan0 181#28DE000000000015
(1718000017.200000) vcan0 60D#0200000000000000
(1718000017.200000) vcan0 374#000000
(1718000017.220000) vcan0 181#28EE000000000016
(1718000017.240000) vcan0 181#28FE000000000016
(1718000017.260000) vcan0 181#290D000000000016
(1718000017.280000) vcan0 181#291D000000000016
(1718000017.300000) vcan0 181#292D000000000016
(1718000017.300000) vcan0 60D#0200000000000000
(1718000017.320000) vcan0 181#293D000000000016
(1718000017.340000) vcan0 181#294D000000000016
(1718000017.360000) vcan0 181#295D000000000016
(1718000017.380000) vcan0 181#296C000000000016
(1718000017.400000) vcan0 181#297C000000000016
(1718000017.400000) vcan0 60D#0200000000000000
(1718000017.400000) vcan0 374#000000
(1718000017.420000) vcan0 181#298C000000000016
(1718000017.440000) vcan0 181#299C000000000016
(1718000017.460000) vcan0 181#29AC000000000016
(1718000017.480000) vcan0 181#29BC000000000016
(1718000017.500000) vcan0 181#29CC000000000016
(1718000017.500000) vcan0 60D#0200000000000000
(1718000017.520000) vcan0 181#29DB000000000016
(1718000017.540000) vcan0 181#29EB000000000016
(1718000017.560000) vcan0 181#29FB000000000016
(1718000017.580000) vcan0 181#2A0B000000000016
(1718000017.600000) vcan0 181#2A1B000000000016
(1718000017.600000) vcan0 60D#0200000000000000
(1718000017.600000) vcan0 374#000000
(1718000017.620000) vcan0 181#2A2B000000000016
(1718000017.640000) vcan0 181#2A3A000000000016
(1718000017.660000) vcan0 181#2A4A000000000016
(1718000017.680000) vcan0 181#2A5A000000000016
(1718000017.700000) vcan0 181#2A6A000000000016
(1718000017.700000) vcan0 60D#0200000000000000
(1718000017.720000) vcan0 181#2A7A000000000016
(1718000017.740000) vcan0 181#2A8A000000000016
(1718000017.760000) vcan0 181#2A99000000000017
(1718000017.780000) vcan0 181#2AA9000000000017
(1718000017.800000) vcan0 181#2AB9000000000017
(1718000017.800000) vcan0 60D#0200000000000000
(1718000017.800000) vcan0 374#000000
(1718000017.820000) vcan0 181#2AC9000000000017
(1718000017.840000) vcan0 181#2AD9000000000017
(1718000017.860000) vcan0 181#2AE9000000000017
(1718000017.880000) vcan0 181#2AF8000000000017
(1718000017.900000) vcan0 181#2B08000000000017
(1718000017.900000) vcan0 60D#0200000000000000
(1718000017.920000) vcan0 181#2B18000000000017
(1718000017.940000) vcan0 181#2B28000000000017
(1718000017.960000) vcan0 181#2B38000000000017
(1718000017.980000) vcan0 181#2B48000000000017
(1718000018.000000) vcan0 181#2B58000000000017
(1718000018.000000) vcan0 60D#0200000000000000
(1718000018.000000) vcan0 374#000000
(1718000018.020000) vcan0 181#2B67000000000017
(1718000018.040000) vcan0 181#2B77000000000017
(1718000018.060000) vcan0 181#2B87000000000017
(1718000018.080000) vcan0 181#2B97000000000017
(1718000018.100000) vcan0 181#2BA7000000000017
(1718000018.100000) vcan0 60D#0200000000000000
(1718000018.120000) vcan0 181#2BB7000000000017
(1718000018.140000) vcan0 181#2BC6000000000017
(1718000018.160000) vcan0 181#2BD6000000000017
(1718000018.180000) vcan0 181#2BE6000000000017
(1718000018.200000) vcan0 181#2BF6000000000017
(1718000018.200000) vcan0 60D#0200000000000000
(1718000018.200000) vcan0 374#000000
(1718000018.220000) vcan0 181#2C06000000000017
(1718000018.240000) vcan0 181#2C16000000000017
(1718000018.260000) vcan0 181#2C25000000000017
(1718000018.280000) vcan0 181#2C35000000000017
(1718000018.300000) vcan0 181#2C45000000000017
(1718000018.300000) vcan0 60D#0200000000000000
(1718000018.320000) vcan0 181#2C55000000000018
(1718000018.340000) vcan0 181#2C65000000000018
(1718000018.360000) vcan0 181#2C75000000000018
(1718000018.380000) vcan0 181#2C84000000000018
(1718000018.400000) vcan0 181#2C94000000000018
(1718000018.400000) vcan0 60D#0200000000000000
(1718000018.400000) vcan0 374#000000
(1718000018.420000) vcan0 181#2CA4000000000018
(1718000018.440000) vcan0 181#2CB4000000000018
(1718000018.460000) vcan0 181#2CC4000000000018
(1718000018.480000) vcan0 181#2CD4000000000018
(1718000018.500000) vcan0 181#2CE4000000000018
(1718000018.500000) vcan0 60D#0200000000000000
(1718000018.520000) vcan0 181#2CF3000000000018
(1718000018.540000) vcan0 181#2D03000000000018
(1718000018.560000) vcan0 181#2D13000000000018
(1718000018.580000) vcan0 181#2D23000000000018
(1718000018.600000) vcan0 181#2D33000000000018
(1718000018.600000) vcan0 60D#0200000000000000
(1718000018.600000) vcan0 374#000000
(1718000018.620000) vcan0 181#2D43000000000018
(1718000018.640000) vcan0 181#2D52000000000018
(1718000018.660000) vcan0 181#2D62000000000018
(1718000018.680000) vcan0 181#2D72000000000018
(1718000018.700000) vcan0 181#2D82000000000018
(1718000018.700000) vcan0 60D#0200000000000000
(1718000018.720000) vcan0 181#2D92000000000018
(1718000018.740000) vcan0 181#2DA2000000000018
(1718000018.760000) vcan0 181#2DB1000000000018
(1718000018.780000) vcan0 181#2DC1000000000018
(1718000018.800000) vcan0 181#2DD1000000000018
(1718000018.800000) vcan0 60D#0200000000000000
(1718000018.800000) vcan0 374#000000
(1718000018.820000) vcan0 181#2DE1000000000018
(1718000018.840000) vcan0 181#2DF1000000000018
(1718000018.860000) vcan0 181#2E01000000000018
(1718000018.880000) vcan0 181#2E10000000000019
(1718000018.900000) vcan0 181#2E20000000000019
(1718000018.900000) vcan0 60D#0200000000000000
(1718000018.920000) vcan0 181#2E30000000000019
(1718000018.940000) vcan0 181#2E40000000000019
(1718000018.960000) vcan0 181#2E50000000000019
(1718000018.980000) vcan0 181#2E60000000000019
(1718000019.000000) vcan0 181#2E70000000000019
(1718000019.000000) vcan0 60D#0200000000000000
(1718000019.000000) vcan0 374#000000
(1718000019.020000) vcan0 181#2E7F000000000019
(1718000019.040000) vcan0 181#2E8F000000000019
(1718000019.060000) vcan0 181#2E9F000000000019
(1718000019.080000) vcan0 181#2EAF000000000019
(1718000019.100000) vcan0 181#2EBF000000000019
(1718000019.100000) vcan0 60D#0200000000000000
(1718000019.120000) vcan0 181#2ECF000000000019
(1718000019.140000) vcan0 181#2EDE000000000019
(1718000019.160000) vcan0 181#2EEE000000000019
(1718000019.180000) vcan0 181#2EFE000000000019
(1718000019.200000) vcan0 181#2F0E000000000019
(1718000019.200000) vcan0 60D#0200000000000000
(1718000019.200000) vcan0 374#000000
(1718000019.220000) vcan0 181#2F1E000000000019
(1718000019.240000) vcan0 181#2F2E000000000019
(1718000019.260000) vcan0 181#2F3D000000000019
(1718000019.280000) vcan0 181#2F4D000000000019
(1718000019.300000) vcan0 181#2F5D000000000019
(1718000019.300000) vcan0 60D#0200000000000000
(1718000019.320000) vcan0 181#2F6D000000000019
(1718000019.340000) vcan0 181#2F7D000000000019
(1718000019.360000) vcan0 181#2F8D000000000019
(1718000019.380000) vcan0 181#2F9C000000000019
(1718000019.400000) vcan0 181#2FAC000000000019
(1718000019.400000) vcan0 60D#0200000000000000
(1718000019.400000) vcan0 374#000000
(1718000019.420000) vcan0 181#2FBC000000000019
(1718000019.440000) vcan0 181#2FCC00000000001A
(1718000019.460000) vcan0 181#2FDC00000000001A
(1718000019.480000) vcan0 181#2FEC00000000001A
(1718000019.500000) vcan0 181#2FFC00000000001A
(1718000019.500000) vcan0 60D#0200000000000000
(1718000019.520000) vcan0 181#300B00000000001A
(1718000019.540000) vcan0 181#301B00000000001A
(1718000019.560000) vcan0 181#302B00000000001A
(1718000019.580000) vcan0 181#303B00000000001A
(1718000019.600000) vcan0 181#304B00000000001A
(1718000019.600000) vcan0 60D#0200000000000000
(1718000019.600000) vcan0 374#000000
(1718000019.620000) vcan0 181#305B00000000001A
(1718000019.640000) vcan0 181#306A00000000001A
(1718000019.660000) vcan0 181#307A00000000001A
(1718000019.680000) vcan0 181#308A00000000001A
(1718000019.700000) vcan0 181#309A00000000001A
(1718000019.700000) vcan0 60D#0200000000000000
(1718000019.720000) vcan0 181#30AA00000000001A
(1718000019.740000) vcan0 181#30BA00000000001A
(1718000019.760000) vcan0 181#30C900000000001A
(1718000019.780000) vcan0 181#30D900000000001A
(1718000019.800000) vcan0 181#30E900000000001A
(1718000019.800000) vcan0 60D#0200000000000000
(1718000019.800000) vcan0 374#000000
(1718000019.820000) vcan0 181#30F900000000001A
(1718000019.840000) vcan0 181#310900000000001A
(1718000019.860000) vcan0 181#311900000000001A
(1718000019.880000) vcan0 181#312800000000001A
(1718000019.900000) vcan0 181#313800000000001A
(1718000019.900000) vcan0 60D#0200000000000000
(1718000019.920000) vcan0 181#314800000000001A
(1718000019.940000) vcan0 181#315800000000001A
(1718000019.960000) vcan0 181#316800000000001A
(1718000019.980000) vcan0 181#317800000000001B
(1718000020.000000) vcan0 181#318800000000001B
(1718000020.000000) vcan0 60D#0200000000000000
(1718000020.000000) vcan0 374#000000
(1718000020.020000) vcan0 181#319700000000001B
(1718000020.040000) vcan0 181#31A700000000001B
(1718000020.060000) vcan0 181#31B700000000001B
(1718000020.080000) vcan0 181#31C700000000001B
(1718000020.100000) vcan0 181#31D700000000001B
(1718000020.100000) vcan0 60D#0200000000000000
(1718000020.120000) vcan0 181#31E700000000001B
(1718000020.140000) vcan0 181#31F600000000001B
(1718000020.160000) vcan0 181#320600000000001B
(1718000020.180000) vcan0 181#321600000000001B
(1718000020.200000) vcan0 181#322600000000001B
(1718000020.200000) vcan0 60D#0200000000000000
(1718000020.200000) vcan0 374#000000
(1718000020.220000) vcan0 181#323600000000001B
(1718000020.240000) vcan0 181#324600000000001B
(1718000020.260000) vcan0 181#325500000000001B
(1718000020.280000) vcan0 181#326500000000001B
(1718000020.300000) vcan0 181#327500000000001B
(1718000020.300000) vcan0 60D#0200000000000000
(1718000020.320000) vcan0 181#328500000000001B
(1718000020.340000) vcan0 181#329500000000001B
(1718000020.360000) vcan0 181#32A500000000001B
(1718000020.380000) vcan0 181#32B400000000001B
(1718000020.400000) vcan0 181#32C400000000001B
(1718000020.400000) vcan0 60D#0200000000000000
(1718000020.400000) vcan0 374#000000
(1718000020.420000) vcan0 181#32D400000000001B
(1718000020.440000) vcan0 181#32E400000000001B
(1718000020.460000) vcan0 181#32F400000000001B
(1718000020.480000) vcan0 181#330400000000001B
(1718000020.500000) vcan0 181#331400000000001B
(1718000020.500000) vcan0 60D#0200000000000000
(1718000020.520000) vcan0 181#332300000000001B
(1718000020.540000) vcan0 181#333300000000001C
(1718000020.560000) vcan0 181#334300000000001C
(1718000020.580000) vcan0 181#335300000000001C
(1718000020.600000) vcan0 181#336300000000001C
(1718000020.600000) vcan0 60D#0200000000000000
(1718000020.600000) vcan0 374#000000
(1718000020.620000) vcan0 181#337300000000001C
(1718000020.640000) vcan0 181#338200000000001C
(1718000020.660000) vcan0 181#339200000000001C
(1718000020.680000) vcan0 181#33A200000000001C
(1718000020.700000) vcan0 181#33B200000000001C
(1718000020.700000) vcan0 60D#0200000000000000
(1718000020.720000) vcan0 181#33C200000000001C
(1718000020.740000) vcan0 181#33D200000000001C
(1718000020.760000) vcan0 181#33E100000000001C
(1718000020.780000) vcan0 181#33F100000000001C
(1718000020.800000) vcan0 181#340100000000001C
(1718000020.800000) vcan0 60D#0200000000000000
(1718000020.800000) vcan0 374#000000
(1718000020.820000) vcan0 181#341100000000001C
(1718000020.840000) vcan0 181#342100000000001C
(1718000020.860000) vcan0 181#343100000000001C
(1718000020.880000) vcan0 181#344000000000001C
(1718000020.900000) vcan0 181#345000000000001C
(1718000020.900000) vcan0 60D#0200000000000000
(1718000020.920000) vcan0 181#346000000000001C
(1718000020.940000) vcan0 181#347000000000001C
(1718000020.960000) vcan0 181#348000000000001C
(1718000020.980000) vcan0 181#349000000000001C
(1718000021.000000) vcan0 181#34A000000000001C
(1718000021.000000) vcan0 60D#0200000000000000
(1718000021.000000) vcan0 374#000000
(1718000021.020000) vcan0 181#34AF00000000001C
(1718000021.040000) vcan0 181#34BF00000000001C
(1718000021.060000) vcan0 181#34CF00000000001C
(1718000021.080000) vcan0 181#34DF00000000001C
(1718000021.100000) vcan0 181#34EF00000000001D
(1718000021.100000) vcan0 60D#0200000000000000
(1718000021.120000) vcan0 181#34FF00000000001D
(1718000021.140000) vcan0 181#350E00000000001D
(1718000021.160000) vcan0 181#351E00000000001D
(1718000021.180000) vcan0 181#352E00000000001D
(1718000021.200000) vcan0 181#353E00000000001D
(1718000021.200000) vcan0 60D#0200000000000000
(1718000021.200000) vcan0 374#000000
(1718000021.220000) vcan0 181#354E00000000001D
(1718000021.240000) vcan0 181#355E00000000001D
(1718000021.260000) vcan0 181#356D00000000001D
(1718000021.280000) vcan0 181#357D00000000001D
(1718000021.300000) vcan0 181#358D00000000001D
(1718000021.300000) vcan0 60D#0200000000000000
(1718000021.320000) vcan0 181#359D00000000001D
(1718000021.340000) vcan0 181#35AD00000000001D
(1718000021.360000) vcan0 181#35BD00000000001D
(1718000021.380000) vcan0 181#35CC00000000001D
(1718000021.400000) vcan0 181#35DC00000000001D
(1718000021.400000) vcan0 60D#0200000000000000
(1718000021.400000) vcan0 374#000000
(1718000021.420000) vcan0 181#35EC00000000001D
(1718000021.440000) vcan0 181#35FC00000000001D
(1718000021.460000) vcan0 181#360C00000000001D
(1718000021.480000) vcan0 181#361C00000000001D
(1718000021.500000) vcan0 181#362C00000000001D
(1718000021.500000) vcan0 60D#0200000000000000
(1718000021.520000) vcan0 181#363B00000000001D
(1718000021.540000) vcan0 181#364B00000000001D
(1718000021.560000) vcan0 181#365B00000000001D
(1718000021.580000) vcan0 181#366B00000000001D
(1718000021.600000) vcan0 181#367B00000000001D
(1718000021.600000) vcan0 60D#0200000000000000
(1718000021.600000) vcan0 374#000000
(1718000021.620000) vcan0 181#368B00000000001D
(1718000021.640000) vcan0 181#369A00000000001D
(1718000021.660000) vcan0 181#36AA00000000001E
(1718000021.680000) vcan0 181#36BA00000000001E
(1718000021.700000) vcan0 181#36CA00000000001E
(1718000021.700000) vcan0 60D#0200000000000000
(1718000021.720000) vcan0 181#36DA00000000001E
(1718000021.740000) vcan0 181#36EA00000000001E
(1718000021.760000) vcan0 181#36F900000000001E
(1718000021.780000) vcan0 181#370900000000001E
(1718000021.800000) vcan0 181#371900000000001E
(1718000021.800000) vcan0 60D#0200000000000000
(1718000021.800000) vcan0 374#000000
(1718000021.820000) vcan0 181#372900000000001E
(1718000021.840000) vcan0 181#373900000000001E
(1718000021.860000) vcan0 181#374900000000001E
(1718000021.880000) vcan0 181#375800000000001E
(1718000021.900000) vcan0 181#376800000000001E
(1718000021.900000) vcan0 60D#0200000000000000
(1718000021.920000) vcan0 181#377800000000001E
(1718000021.940000) vcan0 181#378800000000001E
(1718000021.960000) vcan0 181#379800000000001E
(1718000021.980000) vcan0 181#37A800000000001E
(1718000022.000000) vcan0 181#37B800000000001E
(1718000022.000000) vcan0 60D#0200000000000000
(1718000022.000000) vcan0 374#000000
(1718000022.020000) vcan0 181#37C700000000001E
(1718000022.040000) vcan0 181#37D700000000001E
(1718000022.060000) vcan0 181#37E700000000001E
(1718000022.080000) vcan0 181#37F700000000001E
(1718000022.100000) vcan0 181#380700000000001E
(1718000022.100000) vcan0 60D#0200000000000000
(1718000022.120000) vcan0 181#381700000000001E
(1718000022.140000) vcan0 181#382600000000001E
(1718000022.160000) vcan0 181#383600000000001E
(1718000022.180000) vcan0 181#384600000000001E
(1718000022.200000) vcan0 181#385600000000001E
(1718000022.200000) vcan0 60D#0200000000000000
(1718000022.200000) vcan0 374#000000
(1718000022.220000) vcan0 181#386600000000001F
(1718000022.240000) vcan0 181#387600000000001F
(1718000022.260000) vcan0 181#388500000000001F
(1718000022.280000) vcan0 181#389500000000001F
(1718000022.300000) vcan0 181#38A500000000001F
(1718000022.300000) vcan0 60D#0200000000000000
(1718000022.320000) vcan0 181#38B500000000001F
(1718000022.340000) vcan0 181#38C500000000001F
(1718000022.360000) vcan0 181#38D500000000001F
(1718000022.380000) vcan0 181#38E400000000001F
(1718000022.400000) vcan0 181#38F400000000001F
(1718000022.400000) vcan0 60D#0200000000000000
(1718000022.400000) vcan0 374#000000
(1718000022.420000) vcan0 181#390400000000001F
(1718000022.440000) vcan0 181#391400000000001F
(1718000022.460000) vcan0 181#392400000000001F
(1718000022.480000) vcan0 181#393400000000001F
(1718000022.500000) vcan0 181#394400000000001F
(1718000022.500000) vcan0 60D#0200000000000000
(1718000022.520000) vcan0 181#395300000000001F
(1718000022.540000) vcan0 181#396300000000001F
(1718000022.560000) vcan0 181#397300000000001F
(1718000022.580000) vcan0 181#398300000000001F
(1718000022.600000) vcan0 181#399300000000001F
(1718000022.600000) vcan0 60D#0200000000000000
(1718000022.600000) vcan0 374#000000
(1718000022.620000) vcan0 181#39A300000000001F
(1718000022.640000) vcan0 181#39B200000000001F
(1718000022.660000) vcan0 181#39C200000000001F
(1718000022.680000) vcan0 181#39D200000000001F
(1718000022.700000) vcan0 181#39E200000000001F
(1718000022.700000) vcan0 60D#0200000000000000
(1718000022.720000) vcan0 181#39F200000000001F
(1718000022.740000) vcan0 181#3A0200000000001F
(1718000022.760000) vcan0 181#3A11000000000020
(1718000022.780000) vcan0 181#3A21000000000020
(1718000022.800000) vcan0 181#3A31000000000020
(1718000022.800000) vcan0 60D#0200000000000000
(1718000022.800000) vcan0 374#000000
(1718000022.820000) vcan0 181#3A41000000000020
(1718000022.840000) vcan0 181#3A51000000000020
(1718000022.860000) vcan0 181#3A61000000000020
(1718000022.880000) vcan0 181#3A70000000000020
(1718000022.900000) vcan0 181#3A80000000000020
(1718000022.900000) vcan0 60D#0200000000000000
(1718000022.920000) vcan0 181#3A90000000000020
(1718000022.940000) vcan0 181#3AA0000000000020
(1718000022.960000) vcan0 181#3AB0000000000020
(1718000022.980000) vcan0 181#3AC0000000000020
(1718000023.000000) vcan0 181#3AD0000000000020
(1718000023.000000) vcan0 60D#0200000000000000
(1718000023.000000) vcan0 374#000000
(1718000023.020000) vcan0 181#3ADF000000000020
(1718000023.040000) vcan0 181#3AEF000000000020
(1718000023.060000) vcan0 181#3AFF000000000020
(1718000023.080000) vcan0 181#3B0F000000000020
(1718000023.100000) vcan0 181#3B1F000000000020
(1718000023.100000) vcan0 60D#0200000000000000
(1718000023.120000) vcan0 181#3B2F000000000020
(1718000023.140000) vcan0 181#3B3E000000000020
(1718000023.160000) vcan0 181#3B4E000000000020
(1718000023.180000) vcan0 181#3B5E000000000020
(1718000023.200000) vcan0 181#3B6E000000000020
(1718000023.200000) vcan0 60D#0200000000000000
(1718000023.200000) vcan0 374#000000
(1718000023.220000) vcan0 181#3B7E000000000020
(1718000023.240000) vcan0 181#3B8E000000000020
(1718000023.260000) vcan0 181#3B9D000000000020
(1718000023.280000) vcan0 181#3BAD000000000020
(1718000023.300000) vcan0 181#3BBD000000000020
(1718000023.300000) vcan0 60D#0200000000000000
(1718000023.320000) vcan0 181#3BCD000000000021
(1718000023.340000) vcan0 181#3BDD000000000021
(1718000023.360000) vcan0 181#3BED000000000021
(1718000023.380000) vcan0 181#3BFC000000000021
(1718000023.400000) vcan0 181#3C0C000000000021
(1718000023.400000) vcan0 60D#0200000000000000
(1718000023.400000) vcan0 374#000000
(1718000023.420000) vcan0 181#3C1C000000000021
(1718000023.440000) vcan0 181#3C2C000000000021
(1718000023.460000) vcan0 181#3C3C000000000021
(1718000023.480000) vcan0 181#3C4C000000000021
(1718000023.500000) vcan0 181#3C5C000000000021
(1718000023.500000) vcan0 60D#0200000000000000
(1718000023.520000) vcan0 181#3C6B000000000021
(1718000023.540000) vcan0 181#3C7B000000000021
(1718000023.560000) vcan0 181#3C8B000000000021
(1718000023.580000) vcan0 181#3C9B000000000021
(1718000023.600000) vcan0 181#3CAB000000000021
(1718000023.600000) vcan0 60D#0200000000000000
(1718000023.600000) vcan0 374#000000
(1718000023.620000) vcan0 181#3CBB000000000021
(1718000023.640000) vcan0 181#3CCA000000000021
(1718000023.660000) vcan0 181#3CDA000000000021
(1718000023.680000) vcan0 181#3CEA000000000021
(1718000023.700000) vcan0 181#3CFA000000000021
(1718000023.700000) vcan0 60D#0200000000000000
(1718000023.720000) vcan0 181#3D0A000000000021
(1718000023.740000) vcan0 181#3D1A000000000021
(1718000023.760000) vcan0 181#3D29000000000021
(1718000023.780000) vcan0 181#3D39000000000021
(1718000023.800000) vcan0 181#3D49000000000021
(1718000023.800000) vcan0 60D#0200000000000000
(1718000023.800000) vcan0 374#000000
(1718000023.820000) vcan0 181#3D59000000000021
(1718000023.840000) vcan0 181#3D69000000000021
(1718000023.860000) vcan0 181#3D79000000000021
(1718000023.880000) vcan0 181#3D88000000000022
(1718000023.900000) vcan0 181#3D98000000000022
(1718000023.900000) vcan0 60D#0200000000000000
(1718000023.920000) vcan0 181#3DA8000000000022
(1718000023.940000) vcan0 181#3DB8000000000022
(1718000023.960000) vcan0 181#3DC8000000000022
(1718000023.980000) vcan0 181#3DD8000000000022
(1718000024.000000) vcan0 181#3DE8000000000022
(1718000024.000000) vcan0 60D#0200000000000000
(1718000024.000000) vcan0 374#000000
(1718000024.020000) vcan0 181#3DF7000000000022
(1718000024.040000) vcan0 181#3E07000000000022
(1718000024.060000) vcan0 181#3E17000000000022
(1718000024.080000) vcan0 181#3E27000000000022
(1718000024.100000) vcan0 181#3E37000000000022
(1718000024.100000) vcan0 60D#0200000000000000
(1718000024.120000) vcan0 181#3E47000000000022
(1718000024.140000) vcan0 181#3E56000000000022
(1718000024.160000) vcan0 181#3E66000000000022
(1718000024.180000) vcan0 181#3E76000000000022
(1718000024.200000) vcan0 181#3E86000000000022
(1718000024.200000) vcan0 60D#0200000000000000
(1718000024.200000) vcan0 374#000000
(1718000024.220000) vcan0 181#3E96000000000022
(1718000024.240000) vcan0 181#3EA6000000000022
(1718000024.260000) vcan0 181#3EB5000000000022
(1718000024.280000) vcan0 181#3EC5000000000022
(1718000024.300000) vcan0 181#3ED5000000000022
(1718000024.300000) vcan0 60D#0200000000000000
(1718000024.320000) vcan0 181#3EE5000000000022
(1718000024.340000) vcan0 181#3EF5000000000022
(1718000024.360000) vcan0 181#3F05000000000022
(1718000024.380000) vcan0 181#3F14000000000022
(1718000024.400000) vcan0 181#3F24000000000022
(1718000024.400000) vcan0 60D#0200000000000000
(1718000024.400000) vcan0 374#000000
(1718000024.420000) vcan0 181#3F34000000000022
(1718000024.440000) vcan0 181#3F44000000000023
(1718000024.460000) vcan0 181#3F54000000000023
(1718000024.480000) vcan0 181#3F64000000000023
(1718000024.500000) vcan0 181#3F74000000000023
(1718000024.500000) vcan0 60D#0200000000000000
(1718000024.520000) vcan0 181#3F83000000000023
(1718000024.540000) vcan0 181#3F93000000000023
(1718000024.560000) vcan0 181#3FA3000000000023
(1718000024.580000) vcan0 181#3FB3000000000023
(1718000024.600000) vcan0 181#3FC3000000000023
(1718000024.600000) vcan0 60D#0200000000000000
(1718000024.600000) vcan0 374#000000
(1718000024.620000) vcan0 181#3FD3000000000023
(1718000024.640000) vcan0 181#3FE2000000000023
(1718000024.660000) vcan0 181#3FF2000000000023
(1718000024.680000) vcan0 181#4002000000000023
(1718000024.700000) vcan0 181#4012000000000023
(1718000024.700000) vcan0 60D#0200000000000000
(1718000024.720000) vcan0 181#4022000000000023
(1718000024.740000) vcan0 181#4032000000000023
(1718000024.760000) vcan0 181#4041000000000023
(1718000024.780000) vcan0 181#4051000000000023
(1718000024.800000) vcan0 181#4061000000000023
(1718000024.800000) vcan0 60D#0200000000000000
(1718000024.800000) vcan0 374#000000
(1718000024.820000) vcan0 181#4071000000000023
(1718000024.840000) vcan0 181#4081000000000023
(1718000024.860000) vcan0 181#4091000000000023
(1718000024.880000) vcan0 181#40A0000000000023
(1718000024.900000) vcan0 181#40B0000000000023
(1718000024.900000) vcan0 60D#0200000000000000
(1718000024.920000) vcan0 181#40C0000000000023
(1718000024.940000) vcan0 181#40D0000000000023
(1718000024.960000) vcan0 181#40E0000000000023
(1718000024.980000) vcan0 181#40F0000000000024
(1718000025.000000) vcan0 181#4100000000000024
(1718000025.000000) vcan0 60D#0200000000000000
(1718000025.000000) vcan0 374#000000
(1718000025.020000) vcan0 181#410F000000000024
(1718000025.040000) vcan0 181#411F000000000024
(1718000025.060000) vcan0 181#412F000000000024
(1718000025.080000) vcan0 181#413F000000000024
(1718000025.100000) vcan0 181#414F000000000024
(1718000025.100000) vcan0 60D#0200000000000000
(1718000025.120000) vcan0 181#415F000000000024
(1718000025.140000) vcan0 181#416E000000000024
(1718000025.160000) vcan0 181#417E000000000024
(1718000025.180000) vcan0 181#418E000000000024
(1718000025.200000) vcan0 181#419E000000000024
(1718000025.200000) vcan0 60D#0200000000000000
(1718000025.200000) vcan0 374#000000
(1718000025.220000) vcan0 181#41AE000000000024
(1718000025.240000) vcan0 181#41BE000000000024
(1718000025.260000) vcan0 181#41CD000000000024
(1718000025.280000) vcan0 181#41DD000000000024
(1718000025.300000) vcan0 181#41ED000000000024
(1718000025.300000) vcan0 60D#0200000000000000
(1718000025.320000) vcan0 181#41FD000000000024
(1718000025.340000) vcan0 181#420D000000000024
(1718000025.360000) vcan0 181#421D000000000024
(1718000025.380000) vcan0 181#422C000000000024
(1718000025.400000) vcan0 181#423C000000000024
(1718000025.400000) vcan0 60D#0200000000000000
(1718000025.400000) vcan0 374#000000
(1718000025.420000) vcan0 181#424C000000000024
(1718000025.440000) vcan0 181#425C000000000024
(1718000025.460000) vcan0 181#426C000000000024
(1718000025.480000) vcan0 181#427C000000000024
(1718000025.500000) vcan0 181#428C000000000024
(1718000025.500000) vcan0 60D#0200000000000000
(1718000025.520000) vcan0 181#429B000000000024
(1718000025.540000) vcan0 181#42AB000000000025
(1718000025.560000) vcan0 181#42BB000000000025
(1718000025.580000) vcan0 181#42CB000000000025
(1718000025.600000) vcan0 181#42DB000000000025
(1718000025.600000) vcan0 60D#0200000000000000
(1718000025.600000) vcan0 374#000000
(1718000025.620000) vcan0 181#42EB000000000025
(1718000025.640000) vcan0 181#42FA000000000025
(1718000025.660000) vcan0 181#430A000000000025
(1718000025.680000) vcan0 181#431A000000000025
(1718000025.700000) vcan0 181#432A000000000025
(1718000025.700000) vcan0 60D#0200000000000000
(1718000025.720000) vcan0 181#433A000000000025
(1718000025.740000) vcan0 181#434A000000000025
(1718000025.760000) vcan0 181#4359000000000025
(1718000025.780000) vcan0 181#4369000000000025
(1718000025.800000) vcan0 181#4379000000000025
(1718000025.800000) vcan0 60D#0200000000000000
(1718000025.800000) vcan0 374#000000
(1718000025.820000) vcan0 181#4389000000000025
(1718000025.840000) vcan0 181#4399000000000025
(1718000025.860000) vcan0 181#43A9000000000025
(1718000025.880000) vcan0 181#43B8000000000025
(1718000025.900000) vcan0 181#43C8000000000025
(1718000025.900000) vcan0 60D#0200000000000000
(1718000025.920000) vcan0 181#43D8000000000025
(1718000025.940000) vcan0 181#43E8000000000025
(1718000025.960000) vcan0 181#43F8000000000025
(1718000025.980000) vcan0 181#4408000000000025
(1718000026.000000) vcan0 181#4418000000000025
(1718000026.000000) vcan0 60D#0200000000000000
(1718000026.000000) vcan0 374#000000
(1718000026.020000) vcan0 181#4427000000000025
(1718000026.040000) vcan0 181#4437000000000025
(1718000026.060000) vcan0 181#4447000000000025
(1718000026.080000) vcan0 181#4457000000000025
(1718000026.100000) vcan0 181#4467000000000026
(1718000026.100000) vcan0 60D#0200000000000000
(1718000026.120000) vcan0 181#4477000000000026
(1718000026.140000) vcan0 181#4486000000000026
(1718000026.160000) vcan0 181#4496000000000026
(1718000026.180000) vcan0 181#44A6000000000026
(1718000026.200000) vcan0 181#44B6000000000026
(1718000026.200000) vcan0 60D#0200000000000000
(1718000026.200000) vcan0 374#000000
(1718000026.220000) vcan0 181#44C6000000000026
(1718000026.240000) vcan0 181#44D6000000000026
(1718000026.260000) vcan0 181#44E5000000000026
(1718000026.280000) vcan0 181#44F5000000000026
(1718000026.300000) vcan0 181#4505000000000026
(1718000026.300000) vcan0 60D#0200000000000000
(1718000026.320000) vcan0 181#4515000000000026
(1718000026.340000) vcan0 181#4525000000000026
(1718000026.360000) vcan0 181#4535000000000026
(1718000026.380000) vcan0 181#4544000000000026
(1718000026.400000) vcan0 181#4554000000000026
(1718000026.400000) vcan0 60D#0200000000000000
(1718000026.400000) vcan0 374#000000
(1718000026.420000) vcan0 181#4564000000000026
(1718000026.440000) vcan0 181#4574000000000026
(1718000026.460000) vcan0 181#4584000000000026
(1718000026.480000) vcan0 181#4594000000000026
(1718000026.500000) vcan0 181#45A4000000000026
(1718000026.500000) vcan0 60D#0200000000000000
(1718000026.520000) vcan0 181#45B3000000000026
(1718000026.540000) vcan0 181#45C3000000000026
(1718000026.560000) vcan0 181#45D3000000000026
(1718000026.580000) vcan0 181#45E3000000000026
(1718000026.600000) vcan0 181#45F3000000000026
(1718000026.600000) vcan0 60D#0200000000000000
(1718000026.600000) vcan0 374#000000
(1718000026.620000) vcan0 181#4603000000000026
(1718000026.640000) vcan0 181#4612000000000026
(1718000026.660000) vcan0 181#4622000000000027
(1718000026.680000) vcan0 181#4632000000000027
(1718000026.700000) vcan0 181#4642000000000027
(1718000026.700000) vcan0 60D#0200000000000000
(1718000026.720000) vcan0 181#4652000000000027
(1718000026.740000) vcan0 181#4662000000000027
(1718000026.760000) vcan0 181#4671000000000027
(1718000026.780000) vcan0 181#4681000000000027
(1718000026.800000) vcan0 181#4691000000000027
(1718000026.800000) vcan0 60D#0200000000000000
(1718000026.800000) vcan0 374#000000
(1718000026.820000) vcan0 181#46A1000000000027
(1718000026.840000) vcan0 181#46B1000000000027
(1718000026.860000) vcan0 181#46C1000000000027
(1718000026.880000) vcan0 181#46D0000000000027
(1718000026.900000) vcan0 181#46E0000000000027
(1718000026.900000) vcan0 60D#0200000000000000
(1718000026.920000) vcan0 181#46F0000000000027
(1718000026.940000) vcan0 181#4700000000000027
(1718000026.960000) vcan0 181#4710000000000027
(1718000026.980000) vcan0 181#4720000000000027
(1718000027.000000) vcan0 181#4730000000000027
(1718000027.000000) vcan0 60D#0200000000000000
(1718000027.000000) vcan0 374#000000
(1718000027.020000) vcan0 181#473F000000000027
(1718000027.040000) vcan0 181#474F000000000027
(1718000027.060000) vcan0 181#475F000000000027
(1718000027.080000) vcan0 181#476F000000000027
(1718000027.100000) vcan0 181#477F000000000027
(1718000027.100000) vcan0 60D#0200000000000000
(1718000027.120000) vcan0 181#478F000000000027
(1718000027.140000) vcan0 181#479E000000000027
(1718000027.160000) vcan0 181#47AE000000000027
(1718000027.180000) vcan0 181#47BE000000000027
(1718000027.200000) vcan0 181#47CE000000000027
(1718000027.200000) vcan0 60D#0200000000000000
(1718000027.200000) vcan0 374#000000
(1718000027.220000) vcan0 181#47DE000000000028
(1718000027.240000) vcan0 181#2BCA000000000028
(1718000027.260000) vcan0 181#2BD5000000000028
(1718000027.280000) vcan0 181#2BE1000000000028
(1718000027.300000) vcan0 181#2BEC000000000028
(1718000027.300000) vcan0 60D#0200000000000000
(1718000027.320000) vcan0 181#2BF8000000000028
(1718000027.340000) vcan0 181#2C03000000000028
(1718000027.360000) vcan0 181#2C0F000000000028
(1718000027.380000) vcan0 181#2C1A000000000028
(1718000027.400000) vcan0 181#2C26000000000028
(1718000027.400000) vcan0 60D#0200000000000000
(1718000027.400000) vcan0 374#000000
(1718000027.420000) vcan0 181#2C31000000000028
(1718000027.440000) vcan0 181#2C3D000000000028
(1718000027.460000) vcan0 181#2C48000000000028
(1718000027.480000) vcan0 181#2C54000000000028
(1718000027.500000) vcan0 181#2C60000000000028
(1718000027.500000) vcan0 60D#0200000000000000
(1718000027.520000) vcan0 181#2C6B000000000028
(1718000027.540000) vcan0 181#2C77000000000028
(1718000027.560000) vcan0 181#2C82000000000028
(1718000027.580000) vcan0 181#2C8E000000000028
(1718000027.600000) vcan0 181#2C99000000000028
(1718000027.600000) vcan0 60D#0200000000000000
(1718000027.600000) vcan0 374#000000
(1718000027.620000) vcan0 181#2CA5000000000028
(1718000027.640000) vcan0 181#2CB0000000000028
(1718000027.660000) vcan0 181#2CBC000000000028
(1718000027.680000) vcan0 181#2CC7000000000028
(1718000027.700000) vcan0 181#2CD3000000000028
(1718000027.700000) vcan0 60D#0200000000000000
(1718000027.720000) vcan0 181#2CDE000000000028
(1718000027.740000) vcan0 181#2CEA000000000028
(1718000027.760000) vcan0 181#2CF5000000000029
(1718000027.780000) vcan0 181#2D01000000000029
(1718000027.800000) vcan0 181#2D0C000000000029
(1718000027.800000) vcan0 60D#0200000000000000
(1718000027.800000) vcan0 374#000000
(1718000027.820000) vcan0 181#2D18000000000029
(1718000027.840000) vcan0 181#2D23000000000029
(1718000027.860000) vcan0 181#2D2F000000000029
(1718000027.880000) vcan0 181#2D3A000000000029
(1718000027.900000) vcan0 181#2D46000000000029
(1718000027.900000) vcan0 60D#0200000000000000
(1718000027.920000) vcan0 181#2D51000000000029
(1718000027.940000) vcan0 181#2D5D000000000029
(1718000027.960000) vcan0 181#2D68000000000029
(1718000027.980000) vcan0 181#2D74000000000029
(1718000028.000000) vcan0 181#2D80000000000029
(1718000028.000000) vcan0 60D#0200000000000000
(1718000028.000000) vcan0 374#000000
(1718000028.020000) vcan0 181#2D8B000000000029
(1718000028.040000) vcan0 181#2D97000000000029
(1718000028.060000) vcan0 181#2DA2000000000029
(1718000028.080000) vcan0 181#2DAE000000000029
(1718000028.100000) vcan0 181#2DB9000000000029
(1718000028.100000) vcan0 60D#0200000000000000
(1718000028.120000) vcan0 181#2DC5000000000029
(1718000028.140000) vcan0 181#2DD0000000000029
(1718000028.160000) vcan0 181#2DDC000000000029
(1718000028.180000) vcan0 181#2DE7000000000029
(1718000028.200000) vcan0 181#2DF3000000000029
(1718000028.200000) vcan0 60D#0200000000000000
(1718000028.200000) vcan0 374#000000
(1718000028.220000) vcan0 181#2DFE000000000029
(1718000028.240000) vcan0 181#2E0A000000000029
(1718000028.260000) vcan0 181#2E15000000000029
(1718000028.280000) vcan0 181#2E21000000000029
(1718000028.300000) vcan0 181#2E2C000000000029
(1718000028.300000) vcan0 60D#0200000000000000
(1718000028.320000) vcan0 181#2E3800000000002A
(1718000028.340000) vcan0 181#2E4300000000002A
(1718000028.360000) vcan0 181#2E4F00000000002A
(1718000028.380000) vcan0 181#2E5A00000000002A
(1718000028.400000) vcan0 181#2E6600000000002A
(1718000028.400000) vcan0 60D#0200000000000000
(1718000028.400000) vcan0 374#000000
(1718000028.420000) vcan0 181#2E7100000000002A
(1718000028.440000) vcan0 181#2E7D00000000002A
(1718000028.460000) vcan0 181#2E8800000000002A
(1718000028.480000) vcan0 181#2E9400000000002A
(1718000028.500000) vcan0 181#2EA000000000002A
(1718000028.500000) vcan0 60D#0200000000000000
(1718000028.520000) vcan0 181#2EAB00000000002A
(1718000028.540000) vcan0 181#2EB700000000002A
(1718000028.560000) vcan0 181#2EC200000000002A
(1718000028.580000) vcan0 181#2ECE00000000002A
(1718000028.600000) vcan0 181#2ED900000000002A
(1718000028.600000) vcan0 60D#0200000000000000
(1718000028.600000) vcan0 374#000000
(1718000028.620000) vcan0 181#2EE500000000002A
(1718000028.640000) vcan0 181#2EF000000000002A
(1718000028.660000) vcan0 181#2EFC00000000002A
(1718000028.680000) vcan0 181#2F0700000000002A
(1718000028.700000) vcan0 181#2F1300000000002A
(1718000028.700000) vcan0 60D#0200000000000000
(1718000028.720000) vcan0 181#2F1E00000000002A
(1718000028.740000) vcan0 181#2F2A00000000002A
(1718000028.760000) vcan0 181#2F3500000000002A
(1718000028.780000) vcan0 181#2F4100000000002A
(1718000028.800000) vcan0 181#2F4C00000000002A
(1718000028.800000) vcan0 60D#0200000000000000
(1718000028.800000) vcan0 374#000000
(1718000028.820000) vcan0 181#2F5800000000002A
(1718000028.840000) vcan0 181#2F6300000000002A
(1718000028.860000) vcan0 181#2F6F00000000002A
(1718000028.880000) vcan0 181#2F7A00000000002B
(1718000028.900000) vcan0 181#2F8600000000002B
(1718000028.900000) vcan0 60D#0200000000000000
(1718000028.920000) vcan0 181#2F9100000000002B
(1718000028.940000) vcan0 181#2F9D00000000002B
(1718000028.960000) vcan0 181#2FA800000000002B
(1718000028.980000) vcan0 181#2FB400000000002B
(1718000029.000000) vcan0 181#2FC000000000002B
(1718000029.000000) vcan0 60D#0200000000000000
(1718000029.000000) vcan0 374#000000
(1718000029.020000) vcan0 181#2FCB00000000002B
(1718000029.040000) vcan0 181#2FD700000000002B
(1718000029.060000) vcan0 181#2FE200000000002B
(1718000029.080000) vcan0 181#2FEE00000000002B
(1718000029.100000) vcan0 181#2FF900000000002B
(1718000029.100000) vcan0 60D#0200000000000000
(1718000029.120000) vcan0 181#300500000000002B
(1718000029.140000) vcan0 181#301000000000002B
(1718000029.160000) vcan0 181#301C00000000002B
(1718000029.180000) vcan0 181#302700000000002B
(1718000029.200000) vcan0 181#303300000000002B
(1718000029.200000) vcan0 60D#0200000000000000
(1718000029.200000) vcan0 374#000000
(1718000029.220000) vcan0 181#303E00000000002B
(1718000029.240000) vcan0 181#304A00000000002B
(1718000029.260000) vcan0 181#305500000000002B
(1718000029.280000) vcan0 181#306100000000002B
(1718000029.300000) vcan0 181#306C00000000002B
(1718000029.300000) vcan0 60D#0200000000000000
(1718000029.320000) vcan0 181#307800000000002B
(1718000029.340000) vcan0 181#308300000000002B
(1718000029.360000) vcan0 181#308F00000000002B
(1718000029.380000) vcan0 181#309A00000000002B
(1718000029.400000) vcan0 181#30A600000000002B
(1718000029.400000) vcan0 60D#0200000000000000
(1718000029.400000) vcan0 374#000000
(1718000029.420000) vcan0 181#30B100000000002B
(1718000029.440000) vcan0 181#30BD00000000002C
(1718000029.460000) vcan0 181#30C800000000002C
(1718000029.480000) vcan0 181#30D400000000002C
(1718000029.500000) vcan0 181#30E000000000002C
(1718000029.500000) vcan0 60D#0200000000000000
(1718000029.520000) vcan0 181#30EB00000000002C
(1718000029.540000) vcan0 181#30F700000000002C
(1718000029.560000) vcan0 181#310200000000002C
(1718000029.580000) vcan0 181#310E00000000002C
(1718000029.600000) vcan0 181#311900000000002C
(1718000029.600000) vcan0 60D#0200000000000000
(1718000029.600000) vcan0 374#000000
(1718000029.620000) vcan0 181#312500000000002C
(1718000029.640000) vcan0 181#313000000000002C
(1718000029.660000) vcan0 181#313C00000000002C
(1718000029.680000) vcan0 181#314700000000002C
(1718000029.700000) vcan0 181#315300000000002C
(1718000029.700000) vcan0 60D#0200000000000000
(1718000029.720000) vcan0 181#315E00000000002C
(1718000029.740000) vcan0 181#316A00000000002C
(1718000029.760000) vcan0 181#317500000000002C
(1718000029.780000) vcan0 181#318100000000002C
(1718000029.800000) vcan0 181#318C00000000002C
(1718000029.800000) vcan0 60D#0200000000000000
(1718000029.800000) vcan0 374#000000
(1718000029.820000) vcan0 181#319800000000002C
(1718000029.840000) vcan0 181#31A300000000002C
(1718000029.860000) vcan0 181#31AF00000000002C
(1718000029.880000) vcan0 181#31BA00000000002C
(1718000029.900000) vcan0 181#31C600000000002C
(1718000029.900000) vcan0 60D#0200000000000000
(1718000029.920000) vcan0 181#31D100000000002C
(1718000029.940000) vcan0 181#31DD00000000002C
(1718000029.960000) vcan0 181#31E800000000002C
(1718000029.980000) vcan0 181#31F400000000002D
(1718000030.000000) vcan0 181#320000000000002B
(1718000030.000000) vcan0 60D#0200000000000000
(1718000030.000000) vcan0 374#000000
(1718000030.020000) vcan0 181#302500000000002B
(1718000030.040000) vcan0 181#302700000000002B
(1718000030.060000) vcan0 181#302900000000002B
(1718000030.080000) vcan0 181#302B00000000002B
(1718000030.100000) vcan0 181#302D00000000002B
(1718000030.100000) vcan0 60D#0200000000000000
(1718000030.120000) vcan0 181#302F00000000002B
(1718000030.140000) vcan0 181#303200000000002B
(1718000030.160000) vcan0 181#303400000000002B
(1718000030.180000) vcan0 181#303700000000002B
(1718000030.200000) vcan0 181#303A00000000002B
(1718000030.200000) vcan0 60D#0200000000000000
(1718000030.200000) vcan0 374#000000
(1718000030.220000) vcan0 181#303D00000000002B
(1718000030.240000) vcan0 181#304100000000002B
(1718000030.260000) vcan0 181#304400000000002B
(1718000030.280000) vcan0 181#304800000000002B
(1718000030.300000) vcan0 181#304C00000000002B
(1718000030.300000) vcan0 60D#0200000000000000
(1718000030.320000) vcan0 181#305000000000002B
(1718000030.340000) vcan0 181#305500000000002B
(1718000030.360000) vcan0 181#305900000000002B
(1718000030.380000) vcan0 181#305E00000000002B
(1718000030.400000) vcan0 181#306300000000002B
(1718000030.400000) vcan0 60D#0200000000000000
(1718000030.400000) vcan0 374#000000
(1718000030.420000) vcan0 181#306800000000002B
(1718000030.440000) vcan0 181#306D00000000002B
(1718000030.460000) vcan0 181#307200000000002B
(1718000030.480000) vcan0 181#307700000000002B
(1718000030.500000) vcan0 181#307D00000000002B
(1718000030.500000) vcan0 60D#0200000000000000
(1718000030.520000) vcan0 181#308300000000002B
(1718000030.540000) vcan0 181#308900000000002B
(1718000030.560000) vcan0 181#308F00000000002B
(1718000030.580000) vcan0 181#309500000000002B
(1718000030.600000) vcan0 181#309B00000000002B
(1718000030.600000) vcan0 60D#0200000000000000
(1718000030.600000) vcan0 374#000000
(1718000030.620000) vcan0 181#30A200000000002B
(1718000030.640000) vcan0 181#30A900000000002B
(1718000030.660000) vcan0 181#30AF00000000002B
(1718000030.680000) vcan0 181#30B600000000002B
(1718000030.700000) vcan0 181#30BD00000000002C
(1718000030.700000) vcan0 60D#0200000000000000
(1718000030.720000) vcan0 181#30C400000000002C
(1718000030.740000) vcan0 181#30CC00000000002C
(1718000030.760000) vcan0 181#30D300000000002C
(1718000030.780000) vcan0 181#30DB00000000002C
(1718000030.800000) vcan0 181#30E200000000002C
(1718000030.800000) vcan0 60D#0200000000000000
(1718000030.800000) vcan0 374#000000
(1718000030.820000) vcan0 181#30EA00000000002C
(1718000030.840000) vcan0 181#30F200000000002C
(1718000030.860000) vcan0 181#30FA00000000002C
(1718000030.880000) vcan0 181#310200000000002C
(1718000030.900000) vcan0 181#310A00000000002C
(1718000030.900000) vcan0 60D#0200000000000000
(1718000030.920000) vcan0 181#311300000000002C
(1718000030.940000) vcan0 181#311B00000000002C
(1718000030.960000) vcan0 181#312400000000002C
(1718000030.980000) vcan0 181#312C00000000002C
(1718000031.000000) vcan0 181#313500000000002C
(1718000031.000000) vcan0 60D#0200000000000000
(1718000031.000000) vcan0 374#000000
(1718000031.020000) vcan0 181#313E00000000002C
(1718000031.040000) vcan0 181#314600000000002C
(1718000031.060000) vcan0 181#314F00000000002C
(1718000031.080000) vcan0 181#315800000000002C
(1718000031.100000) vcan0 181#316100000000002C
(1718000031.100000) vcan0 60D#0200000000000000
(1718000031.120000) vcan0 181#316A00000000002C
(1718000031.140000) vcan0 181#317400000000002C
(1718000031.160000) vcan0 181#317D00000000002C
(1718000031.180000) vcan0 181#318600000000002C
(1718000031.200000) vcan0 181#318F00000000002C
(1718000031.200000) vcan0 60D#0200000000000000
(1718000031.200000) vcan0 374#000000
(1718000031.220000) vcan0 181#319900000000002C
(1718000031.240000) vcan0 181#31A200000000002C
(1718000031.260000) vcan0 181#31AB00000000002C
(1718000031.280000) vcan0 181#31B500000000002C
(1718000031.300000) vcan0 181#31BE00000000002C
(1718000031.300000) vcan0 60D#0200000000000000
(1718000031.320000) vcan0 181#31C800000000002C
(1718000031.340000) vcan0 181#31D200000000002C
(1718000031.360000) vcan0 181#31DB00000000002C
(1718000031.380000) vcan0 181#31E500000000002C
(1718000031.400000) vcan0 181#31EE00000000002C
(1718000031.400000) vcan0 60D#0200000000000000
(1718000031.400000) vcan0 374#000000
(1718000031.420000) vcan0 181#31F800000000002D
(1718000031.440000) vcan0 181#320100000000002D
(1718000031.460000) vcan0 181#320B00000000002D
(1718000031.480000) vcan0 181#321500000000002D
(1718000031.500000) vcan0 181#321E00000000002D
(1718000031.500000) vcan0 60D#0200000000000000
(1718000031.520000) vcan0 181#322800000000002D
(1718000031.540000) vcan0 181#323100000000002D
(1718000031.560000) vcan0 181#323B00000000002D
(1718000031.580000) vcan0 181#324400000000002D
(1718000031.600000) vcan0 181#324E00000000002D
(1718000031.600000) vcan0 60D#0200000000000000
(1718000031.600000) vcan0 374#000000
(1718000031.620000) vcan0 181#325700000000002D
(1718000031.640000) vcan0 181#326100000000002D
(1718000031.660000) vcan0 181#326A00000000002D
(1718000031.680000) vcan0 181#327300000000002D
(1718000031.700000) vcan0 181#327D00000000002D
(1718000031.700000) vcan0 60D#0200000000000000
(1718000031.720000) vcan0 181#328600000000002D
(1718000031.740000) vcan0 181#328F00000000002D
(1718000031.760000) vcan0 181#329800000000002D
(1718000031.780000) vcan0 181#32A100000000002D
(1718000031.800000) vcan0 181#32AA00000000002D
(1718000031.800000) vcan0 60D#0200000000000000
(1718000031.800000) vcan0 374#000000
(1718000031.820000) vcan0 181#32B300000000002D
(1718000031.840000) vcan0 181#32BC00000000002D
(1718000031.860000) vcan0 181#32C500000000002D
(1718000031.880000) vcan0 181#32CE00000000002D
(1718000031.900000) vcan0 181#32D600000000002D
(1718000031.900000) vcan0 60D#0200000000000000
(1718000031.920000) vcan0 181#32DF00000000002D
(1718000031.940000) vcan0 181#32E700000000002D
(1718000031.960000) vcan0 181#32F000000000002D
(1718000031.980000) vcan0 181#32F800000000002D
(1718000032.000000) vcan0 181#330000000000002D
(1718000032.000000) vcan0 60D#0200000000000000
(1718000032.000000) vcan0 374#000000
(1718000032.020000) vcan0 181#330800000000002D
(1718000032.040000) vcan0 181#331000000000002D
(1718000032.060000) vcan0 181#331800000000002D
(1718000032.080000) vcan0 181#332000000000002D
(1718000032.100000) vcan0 181#332700000000002D
(1718000032.100000) vcan0 60D#0200000000000000
(1718000032.120000) vcan0 181#332F00000000002D
(1718000032.140000) vcan0 181#333600000000002D
(1718000032.160000) vcan0 181#333D00000000002E
(1718000032.180000) vcan0 181#334500000000002E
(1718000032.200000) vcan0 181#334C00000000002E
(1718000032.200000) vcan0 60D#0200000000000000
(1718000032.200000) vcan0 374#000000
(1718000032.220000) vcan0 181#335200000000002E
(1718000032.240000) vcan0 181#335900000000002E
(1718000032.260000) vcan0 181#336000000000002E
(1718000032.280000) vcan0 181#336600000000002E
(1718000032.300000) vcan0 181#336D00000000002E
(1718000032.300000) vcan0 60D#0200000000000000
(1718000032.320000) vcan0 181#337300000000002E
(1718000032.340000) vcan0 181#337900000000002E
(1718000032.360000) vcan0 181#337F00000000002E
(1718000032.380000) vcan0 181#338400000000002E
(1718000032.400000) vcan0 181#338A00000000002E
(1718000032.400000) vcan0 60D#0200000000000000
(1718000032.400000) vcan0 374#000000
(1718000032.420000) vcan0 181#338F00000000002E
(1718000032.440000) vcan0 181#339400000000002E
(1718000032.460000) vcan0 181#339A00000000002E
(1718000032.480000) vcan0 181#339E00000000002E
(1718000032.500000) vcan0 181#33A300000000002E
(1718000032.500000) vcan0 60D#0200000000000000
(1718000032.520000) vcan0 181#33A800000000002E
(1718000032.540000) vcan0 181#33AC00000000002E
(1718000032.560000) vcan0 181#33B000000000002E
(1718000032.580000) vcan0 181#33B400000000002E
(1718000032.600000) vcan0 181#33B800000000002E
(1718000032.600000) vcan0 60D#0200000000000000
(1718000032.600000) vcan0 374#000000
(1718000032.620000) vcan0 181#33BC00000000002E
(1718000032.640000) vcan0 181#33C000000000002E
(1718000032.660000) vcan0 181#33C300000000002E
(1718000032.680000) vcan0 181#33C600000000002E
(1718000032.700000) vcan0 181#33C900000000002E
(1718000032.700000) vcan0 60D#0200000000000000
(1718000032.720000) vcan0 181#33CC00000000002E
(1718000032.740000) vcan0 181#33CF00000000002E
(1718000032.760000) vcan0 181#33D100000000002E
(1718000032.780000) vcan0 181#33D300000000002E
(1718000032.800000) vcan0 181#33D500000000002E
(1718000032.800000) vcan0 60D#0200000000000000
(1718000032.800000) vcan0 374#000000
(1718000032.820000) vcan0 181#33D700000000002E
(1718000032.840000) vcan0 181#33D900000000002E
(1718000032.860000) vcan0 181#33DA00000000002E
(1718000032.880000) vcan0 181#33DC00000000002E
(1718000032.900000) vcan0 181#33DD00000000002E
(1718000032.900000) vcan0 60D#0200000000000000
(1718000032.920000) vcan0 181#33DE00000000002E
(1718000032.940000) vcan0 181#33DE00000000002E
(1718000032.960000) vcan0 181#33DF00000000002E
(1718000032.980000) vcan0 181#33DF00000000002E
(1718000033.000000) vcan0 181#33DF00000000002E
(1718000033.000000) vcan0 60D#0200000000000000
(1718000033.000000) vcan0 374#000000
(1718000033.020000) vcan0 181#33DF00000000002E
(1718000033.040000) vcan0 181#33DF00000000002E
(1718000033.060000) vcan0 181#33DF00000000002E
(1718000033.080000) vcan0 181#33DE00000000002E
(1718000033.100000) vcan0 181#33DD00000000002E
(1718000033.100000) vcan0 60D#0200000000000000
(1718000033.120000) vcan0 181#33DC00000000002E
(1718000033.140000) vcan0 181#33DB00000000002E
(1718000033.160000) vcan0 181#33DA00000000002E
(1718000033.180000) vcan0 181#33D800000000002E
(1718000033.200000) vcan0 181#33D700000000002E
(1718000033.200000) vcan0 60D#0200000000000000
(1718000033.200000) vcan0 374#000000
(1718000033.220000) vcan0 181#33D500000000002E
(1718000033.240000) vcan0 181#33D200000000002E
